Vg	Id,Vd=0V	Ig,Vd=0V	Is,Vd=0V	Iavdd,Vd=0V	Ignd,Vd=0V	Id,Vd=0.15V	Ig,Vd=0.15V	Is,Vd=0.15V	Iavdd,Vd=0.15V	Ignd,Vd=0.15V	Id,Vd=0.3V	Ig,Vd=0.3V	Is,Vd=0.3V	Iavdd,Vd=0.3V	Ignd,Vd=0.3V	Id,Vd=0.45V	Ig,Vd=0.45V	Is,Vd=0.45V	Iavdd,Vd=0.45V	Ignd,Vd=0.45V	Id,Vd=0.6V	Ig,Vd=0.6V	Is,Vd=0.6V	Iavdd,Vd=0.6V	Ignd,Vd=0.6V	Id,Vd=0.75V	Ig,Vd=0.75V	Is,Vd=0.75V	Iavdd,Vd=0.75V	Ignd,Vd=0.75V	Id,Vd=0.9V	Ig,Vd=0.9V	Is,Vd=0.9V	Iavdd,Vd=0.9V	Ignd,Vd=0.9V
-0.3	4.086e-11	-7.989e-11	3.044e-11	3.3484e-07	-3.3476e-07	5.0684e-10	-1.5563e-10	-1.4991e-10	3.3464e-07	-3.3486e-07	1.2486e-09	-3.0843e-10	-3.2362e-10	3.3476e-07	-3.3532e-07	2.6773e-09	-5.7557e-10	-6.6386e-10	3.347e-07	-3.3614e-07	5.3778e-09	-9.946e-10	-1.3077e-09	3.3588e-07	-3.3882e-07	1.02498e-08	-1.6157e-09	-2.6124e-09	3.3688e-07	-3.4286e-07	1.87842e-08	-2.467e-09	-5.1214e-09	3.3666e-07	-3.4764e-07
-0.295	4.319e-11	-7.483e-11	2.802e-11	3.349e-07	-3.349e-07	5.3636e-10	-1.4809e-10	-1.7677e-10	3.3464e-07	-3.3488e-07	1.2657e-09	-2.9935e-10	-3.768e-10	3.3478e-07	-3.3532e-07	2.7349e-09	-5.6082e-10	-7.5209e-10	3.3478e-07	-3.3616e-07	5.475e-09	-9.7426e-10	-1.4734e-09	3.357e-07	-3.387e-07	1.04296e-08	-1.5836e-09	-2.9281e-09	3.3674e-07	-3.4262e-07	1.9215e-08	-2.4258e-09	-5.7189e-09	3.3652e-07	-3.4744e-07
-0.29	4.303e-11	-7.05e-11	2.338e-11	3.3482e-07	-3.3474e-07	5.5142e-10	-1.4069e-10	-2.0616e-10	3.349e-07	-3.35e-07	1.3286e-09	-2.8754e-10	-4.3149e-10	3.344e-07	-3.3488e-07	2.8307e-09	-5.4563e-10	-8.5301e-10	3.3468e-07	-3.361e-07	5.6353e-09	-9.5269e-10	-1.6646e-09	3.3562e-07	-3.3854e-07	1.07354e-08	-1.5542e-09	-3.2916e-09	3.366e-07	-3.4252e-07	1.9748e-08	-2.3879e-09	-6.39e-09	3.364e-07	-3.4732e-07
-0.285	3.715e-11	-6.734e-11	2.045e-11	3.3482e-07	-3.3474e-07	5.915e-10	-1.3458e-10	-2.423e-10	3.3476e-07	-3.3494e-07	1.3712e-09	-2.7905e-10	-4.9675e-10	3.3428e-07	-3.3488e-07	2.9273e-09	-5.3118e-10	-9.7394e-10	3.3464e-07	-3.361e-07	5.8432e-09	-9.3206e-10	-1.8814e-09	3.3556e-07	-3.3854e-07	1.11052e-08	-1.5272e-09	-3.6798e-09	3.3656e-07	-3.424e-07	2.04318e-08	-2.345e-09	-7.1139e-09	3.3632e-07	-3.4714e-07
-0.28	4.342e-11	-6.355e-11	1.736e-11	3.3484e-07	-3.3484e-07	6.1737e-10	-1.2992e-10	-2.803e-10	3.3466e-07	-3.3482e-07	1.4428e-09	-2.6839e-10	-5.6621e-10	3.3432e-07	-3.3482e-07	3.0584e-09	-5.1754e-10	-1.11371e-09	3.3466e-07	-3.36e-07	6.0462e-09	-9.1171e-10	-2.1333e-09	3.356e-07	-3.3858e-07	1.15024e-08	-1.4996e-09	-4.1238e-09	3.3642e-07	-3.4226e-07	2.1173e-08	-2.3114e-09	-7.9627e-09	3.3616e-07	-3.4694e-07
-0.275	3.837e-11	-6.079e-11	1.359e-11	3.3488e-07	-3.347e-07	6.607e-10	-1.2315e-10	-3.247e-10	3.348e-07	-3.3498e-07	1.52e-09	-2.6021e-10	-6.4974e-10	3.3428e-07	-3.3484e-07	3.1782e-09	-5.0373e-10	-1.2586e-09	3.3458e-07	-3.3598e-07	6.3381e-09	-8.9098e-10	-2.4041e-09	3.356e-07	-3.3852e-07	1.19882e-08	-1.4708e-09	-4.6353e-09	3.3638e-07	-3.4216e-07	2.2018e-08	-2.2755e-09	-8.8845e-09	3.362e-07	-3.4692e-07
-0.27	4.513e-11	-5.812e-11	1.022e-11	3.3484e-07	-3.3482e-07	7.0339e-10	-1.1798e-10	-3.755e-10	3.347e-07	-3.3496e-07	1.5942e-09	-2.5255e-10	-7.4621e-10	3.3426e-07	-3.3478e-07	3.3572e-09	-4.9118e-10	-1.4284e-09	3.3458e-07	-3.3586e-07	6.5605e-09	-8.7373e-10	-2.7241e-09	3.3544e-07	-3.3836e-07	1.24952e-08	-1.4462e-09	-5.1912e-09	3.3624e-07	-3.421e-07	2.29504e-08	-2.2393e-09	-9.9282e-09	3.3604e-07	-3.468e-07
-0.265	3.64e-11	-5.46e-11	6.27e-12	3.3488e-07	-3.3482e-07	7.5669e-10	-1.1433e-10	-4.3109e-10	3.3478e-07	-3.3494e-07	1.7058e-09	-2.4487e-10	-8.4823e-10	3.3428e-07	-3.3484e-07	3.5109e-09	-4.7952e-10	-1.623e-09	3.3456e-07	-3.3598e-07	6.9247e-09	-8.5397e-10	-3.064e-09	3.3538e-07	-3.3834e-07	1.31314e-08	-1.4191e-09	-5.8306e-09	3.3618e-07	-3.4198e-07	2.40798e-08	-2.203e-09	-1.10927e-08	3.3642e-07	-3.4714e-07
-0.26	4.339e-11	-5.11e-11	3.62e-12	3.3484e-07	-3.3476e-07	8.179e-10	-1.0976e-10	-4.9617e-10	3.3482e-07	-3.3502e-07	1.7974e-09	-2.36e-10	-9.697e-10	3.3428e-07	-3.349e-07	3.7433e-09	-4.6528e-10	-1.8334e-09	3.3456e-07	-3.3598e-07	7.2911e-09	-8.366e-10	-3.4578e-09	3.3538e-07	-3.3818e-07	1.37894e-08	-1.3926e-09	-6.5767e-09	3.3632e-07	-3.4202e-07	2.52926e-08	-2.1705e-09	-1.24188e-08	3.3626e-07	-3.4698e-07
-0.255	4.379e-11	-4.911e-11	-1.61e-12	3.3482e-07	-3.3476e-07	8.8194e-10	-1.0474e-10	-5.7109e-10	3.3482e-07	-3.3496e-07	1.9449e-09	-2.29e-10	-1.10749e-09	3.3428e-07	-3.3476e-07	3.978e-09	-4.5333e-10	-2.0936e-09	3.3454e-07	-3.3598e-07	7.7332e-09	-8.193e-10	-3.9292e-09	3.3532e-07	-3.383e-07	1.4595e-08	-1.3663e-09	-7.3697e-09	3.3624e-07	-3.419e-07	2.67164e-08	-2.1342e-09	-1.39046e-08	3.3622e-07	-3.4682e-07
-0.25	4.792e-11	-4.553e-11	-4.75e-12	3.3478e-07	-3.347e-07	9.6633e-10	-9.998e-11	-6.5467e-10	3.349e-07	-3.3506e-07	2.0769e-09	-2.2221e-10	-1.2635e-09	3.3422e-07	-3.3484e-07	4.235e-09	-4.4152e-10	-2.3797e-09	3.3454e-07	-3.359e-07	8.2182e-09	-8.0023e-10	-4.4233e-09	3.3528e-07	-3.382e-07	1.54996e-08	-1.3398e-09	-8.3341e-09	3.3614e-07	-3.4198e-07	2.82956e-08	-2.0981e-09	-1.55892e-08	3.362e-07	-3.4676e-07
-0.245	4.308e-11	-4.234e-11	-1.213e-11	3.3478e-07	-3.347e-07	1.05408e-09	-9.615e-11	-7.4961e-10	3.3484e-07	-3.3502e-07	2.2631e-09	-2.1362e-10	-1.4434e-09	3.3434e-07	-3.3492e-07	4.5402e-09	-4.2989e-10	-2.7066e-09	3.3448e-07	-3.3586e-07	8.7726e-09	-7.8404e-10	-5.0142e-09	3.353e-07	-3.3816e-07	1.64702e-08	-1.315e-09	-9.3533e-09	3.3598e-07	-3.4178e-07	3.01264e-08	-2.0647e-09	-1.74666e-08	3.3636e-07	-3.47e-07
-0.24	4.875e-11	-4.022e-11	-1.585e-11	3.3472e-07	-3.3472e-07	1.1619e-09	-9.156e-11	-8.5513e-10	3.3474e-07	-3.3494e-07	2.4496e-09	-2.0651e-10	-1.6407e-09	3.3436e-07	-3.349e-07	4.8857e-09	-4.1927e-10	-3.06e-09	3.3442e-07	-3.358e-07	9.4132e-09	-7.6781e-10	-5.6677e-09	3.3534e-07	-3.3818e-07	1.76032e-08	-1.2906e-09	-1.05018e-08	3.3608e-07	-3.417e-07	3.21152e-08	-2.0348e-09	-1.95464e-08	3.3612e-07	-3.4662e-07
-0.235	5.533e-11	-3.788e-11	-2.089e-11	3.3478e-07	-3.3468e-07	1.2756e-09	-8.766e-11	-9.8205e-10	3.3486e-07	-3.3498e-07	2.6742e-09	-2.0004e-10	-1.8697e-09	3.3458e-07	-3.3514e-07	5.298e-09	-4.0949e-10	-3.4818e-09	3.3442e-07	-3.358e-07	1.01086e-08	-7.5071e-10	-6.416e-09	3.3528e-07	-3.3818e-07	1.89002e-08	-1.2677e-09	-1.19158e-08	3.3592e-07	-3.4162e-07	3.45478e-08	-2.002e-09	-2.19204e-08	3.3608e-07	-3.4664e-07
-0.23	5.568e-11	-3.631e-11	-2.906e-11	3.3474e-07	-3.3468e-07	1.42e-09	-8.387e-11	-1.12022e-09	3.347e-07	-3.3494e-07	2.9183e-09	-1.9426e-10	-2.1348e-09	3.3458e-07	-3.3508e-07	5.7622e-09	-3.9859e-10	-3.9341e-09	3.3442e-07	-3.3584e-07	1.09719e-08	-7.3405e-10	-7.2406e-09	3.3526e-07	-3.381e-07	2.03874e-08	-1.2431e-09	-1.34136e-08	3.3578e-07	-3.4142e-07	3.71058e-08	-1.9699e-09	-2.46002e-08	3.3604e-07	-3.4644e-07
-0.225	6.709e-11	-3.344e-11	-3.329e-11	3.3474e-07	-3.3476e-07	1.5747e-09	-7.959e-11	-1.2875e-09	3.3472e-07	-3.3484e-07	3.2209e-09	-1.8671e-10	-2.4265e-09	3.3424e-07	-3.3484e-07	6.2979e-09	-3.88e-10	-4.4939e-09	3.3448e-07	-3.358e-07	1.19418e-08	-7.1628e-10	-8.2265e-09	3.353e-07	-3.3824e-07	2.21008e-08	-1.2208e-09	-1.50522e-08	3.356e-07	-3.4128e-07	4.00078e-08	-1.9366e-09	-2.75796e-08	3.3604e-07	-3.4644e-07
-0.22	6.458e-11	-3.214e-11	-4.061e-11	3.3476e-07	-3.3478e-07	1.7639e-09	-7.647e-11	-1.471e-09	3.3486e-07	-3.3498e-07	3.5535e-09	-1.8092e-10	-2.7558e-09	3.3424e-07	-3.3478e-07	6.865e-09	-3.7773e-10	-5.1012e-09	3.3448e-07	-3.3584e-07	1.29878e-08	-7.0375e-10	-9.2732e-09	3.352e-07	-3.3812e-07	2.39532e-08	-1.1981e-09	-1.70028e-08	3.3556e-07	-3.4126e-07	4.3338e-08	-1.9054e-09	-3.09418e-08	3.3594e-07	-3.4634e-07
-0.215	8.277e-11	-2.963e-11	-5.273e-11	3.3476e-07	-3.3472e-07	1.9632e-09	-7.362e-11	-1.6782e-09	3.3472e-07	-3.349e-07	3.9279e-09	-1.746e-10	-3.1582e-09	3.3418e-07	-3.3478e-07	7.5621e-09	-3.6746e-10	-5.7823e-09	3.344e-07	-3.3572e-07	1.41936e-08	-6.8623e-10	-1.05149e-08	3.352e-07	-3.381e-07	2.61258e-08	-1.1738e-09	-1.9219e-08	3.3562e-07	-3.413e-07	4.71568e-08	-1.8729e-09	-3.48756e-08	3.359e-07	-3.4626e-07
-0.21	8.257e-11	-2.837e-11	-5.779e-11	3.3482e-07	-3.3476e-07	2.2013e-09	-7.038e-11	-1.9146e-09	3.3466e-07	-3.3488e-07	4.3724e-09	-1.683e-10	-3.6186e-09	3.3426e-07	-3.3464e-07	8.333e-09	-3.5846e-10	-6.5684e-09	3.3436e-07	-3.3582e-07	1.5559e-08	-6.7224e-10	-1.1903e-08	3.3522e-07	-3.3816e-07	2.85534e-08	-1.1539e-09	-2.16538e-08	3.3548e-07	-3.4114e-07	5.12368e-08	-1.8377e-09	-3.91286e-08	3.3588e-07	-3.4618e-07
-0.205	9.36e-11	-2.525e-11	-7.547e-11	3.3476e-07	-3.347e-07	2.4641e-09	-6.771e-11	-2.1873e-09	3.3474e-07	-3.3506e-07	4.8715e-09	-1.6235e-10	-4.1143e-09	3.3422e-07	-3.3482e-07	9.2333e-09	-3.4755e-10	-7.4735e-09	3.3452e-07	-3.358e-07	1.71386e-08	-6.5809e-10	-1.3501e-08	3.3524e-07	-3.381e-07	3.12966e-08	-1.1302e-09	-2.4427e-08	3.3542e-07	-3.412e-07	5.61698e-08	-1.8129e-09	-4.38826e-08	3.358e-07	-3.4612e-07
-0.2	1.1848e-10	-2.448e-11	-9.034e-11	3.3488e-07	-3.3476e-07	2.7874e-09	-6.408e-11	-2.4923e-09	3.3472e-07	-3.3488e-07	5.4417e-09	-1.5606e-10	-4.6834e-09	3.3424e-07	-3.3484e-07	1.01982e-08	-3.3951e-10	-8.4976e-09	3.3436e-07	-3.3578e-07	1.89254e-08	-6.4314e-10	-1.52304e-08	3.352e-07	-3.3818e-07	3.43794e-08	-1.1106e-09	-2.75606e-08	3.3492e-07	-3.4058e-07	6.14092e-08	-1.7836e-09	-4.93974e-08	3.3536e-07	-3.4556e-07
-0.195	1.1539e-10	-2.331e-11	-1.0794e-10	3.3476e-07	-3.347e-07	3.1313e-09	-6.12e-11	-2.8482e-09	3.348e-07	-3.3486e-07	6.0805e-09	-1.5103e-10	-5.3235e-09	3.3422e-07	-3.3476e-07	1.13694e-08	-3.284e-10	-9.643e-09	3.344e-07	-3.3574e-07	2.08994e-08	-6.2716e-10	-1.73518e-08	3.3508e-07	-3.3804e-07	3.79404e-08	-1.087e-09	-3.10418e-08	3.349e-07	-3.4056e-07	6.74806e-08	-1.756e-09	-5.54012e-08	3.353e-07	-3.4554e-07
-0.19	1.4403e-10	-2.145e-11	-1.18e-10	3.3476e-07	-3.347e-07	3.5387e-09	-5.846e-11	-3.2613e-09	3.3472e-07	-3.3492e-07	6.8243e-09	-1.4596e-10	-6.0651e-09	3.3422e-07	-3.3478e-07	1.26912e-08	-3.2169e-10	-1.09655e-08	3.3446e-07	-3.358e-07	2.31824e-08	-6.1551e-10	-1.96256e-08	3.3506e-07	-3.3804e-07	4.184e-08	-1.068e-09	-3.50208e-08	3.3492e-07	-3.4054e-07	7.42462e-08	-1.7244e-09	-6.21666e-08	3.3538e-07	-3.4554e-07
-0.185	1.4602e-10	-2.154e-11	-1.4641e-10	3.3478e-07	-3.3472e-07	4e-09	-5.622e-11	-3.7313e-09	3.3474e-07	-3.349e-07	7.6954e-09	-1.4057e-10	-6.9128e-09	3.3426e-07	-3.3482e-07	1.42404e-08	-3.1201e-10	-1.25012e-08	3.3436e-07	-3.3562e-07	2.58812e-08	-6.0132e-10	-2.22392e-08	3.351e-07	-3.3804e-07	4.6412e-08	-1.0495e-09	-3.96468e-08	3.349e-07	-3.4056e-07	8.20518e-08	-1.6984e-09	-6.98264e-08	3.3532e-07	-3.4562e-07
-0.18	1.9059e-10	-2.011e-11	-1.6287e-10	3.3478e-07	-3.3476e-07	4.5214e-09	-5.338e-11	-4.2512e-09	3.347e-07	-3.3484e-07	8.6024e-09	-1.3552e-10	-7.907e-09	3.3412e-07	-3.348e-07	1.59274e-08	-3.0396e-10	-1.4158e-08	3.343e-07	-3.3562e-07	2.87036e-08	-5.8675e-10	-2.52824e-08	3.3498e-07	-3.3798e-07	5.15878e-08	-1.0275e-09	-4.46422e-08	3.3486e-07	-3.4054e-07	9.06522e-08	-1.6693e-09	-7.85326e-08	3.352e-07	-3.4542e-07
-0.175	2.1401e-10	-1.921e-11	-1.7465e-10	3.3488e-07	-3.3486e-07	5.1267e-09	-5.077e-11	-4.8743e-09	3.347e-07	-3.3488e-07	9.7207e-09	-1.3189e-10	-9.0182e-09	3.342e-07	-3.3474e-07	1.7862e-08	-2.9464e-10	-1.61512e-08	3.3424e-07	-3.3564e-07	3.2199e-08	-5.7491e-10	-2.86456e-08	3.3508e-07	-3.38e-07	5.71862e-08	-1.0082e-09	-5.06784e-08	3.349e-07	-3.4048e-07	1.00182e-07	-1.6422e-09	-8.849e-08	3.3522e-07	-3.4544e-07
-0.17	2.2744e-10	-1.801e-11	-2.1887e-10	3.3478e-07	-3.3472e-07	5.8091e-09	-4.795e-11	-5.5452e-09	3.3478e-07	-3.3482e-07	1.1004e-08	-1.2685e-10	-1.02366e-08	3.3426e-07	-3.3478e-07	2.00586e-08	-2.8824e-10	-1.83198e-08	3.343e-07	-3.356e-07	3.58898e-08	-5.5976e-10	-3.23982e-08	3.3512e-07	-3.38e-07	6.39682e-08	-9.8748e-10	-5.71354e-08	3.3502e-07	-3.406e-07	1.114086e-07	-1.616e-09	-9.95332e-08	3.352e-07	-3.4532e-07
-0.165	2.7138e-10	-1.641e-11	-2.5084e-10	3.3484e-07	-3.3478e-07	6.6233e-09	-4.576e-11	-6.344e-09	3.3468e-07	-3.3488e-07	1.24918e-08	-1.2198e-10	-1.17574e-08	3.3416e-07	-3.3476e-07	2.26252e-08	-2.7775e-10	-2.08998e-08	3.343e-07	-3.3568e-07	4.04306e-08	-5.4774e-10	-3.6869e-08	3.351e-07	-3.3794e-07	7.13246e-08	-9.7107e-10	-6.49328e-08	3.3492e-07	-3.4054e-07	1.2434e-07	-1.5881e-09	-1.127868e-07	3.35e-07	-3.4526e-07
-0.16	3.0246e-10	-1.473e-11	-2.9491e-10	3.3484e-07	-3.348e-07	7.513e-09	-4.455e-11	-7.2507e-09	3.3478e-07	-3.35e-07	1.4113e-08	-1.19e-10	-1.34e-08	3.3426e-07	-3.3472e-07	2.54476e-08	-2.7103e-10	-2.3776e-08	3.343e-07	-3.3562e-07	4.53008e-08	-5.3489e-10	-4.17898e-08	3.3508e-07	-3.379e-07	7.97914e-08	-9.5005e-10	-7.3157e-08	3.3494e-07	-3.4048e-07	1.3898e-07	-1.5589e-09	-1.2696e-07	3.3508e-07	-3.4518e-07
-0.155	3.6741e-10	-1.35e-11	-3.2473e-10	3.3484e-07	-3.3482e-07	8.5899e-09	-4.138e-11	-8.2911e-09	3.347e-07	-3.3492e-07	1.6073e-08	-1.1325e-10	-1.52692e-08	3.3416e-07	-3.3478e-07	2.88066e-08	-2.647e-10	-2.70714e-08	3.3428e-07	-3.358e-07	5.09384e-08	-5.2232e-10	-4.74236e-08	3.3512e-07	-3.3786e-07	8.9414e-08	-9.3154e-10	-8.27842e-08	3.3492e-07	-3.4036e-07	1.5594e-07	-1.5331e-09	-1.4386e-07	3.3516e-07	-3.4528e-07
-0.15	4.0344e-10	-1.385e-11	-3.7367e-10	3.3478e-07	-3.347e-07	9.7493e-09	-4.087e-11	-9.4755e-09	3.347e-07	-3.3478e-07	1.81552e-08	-1.0938e-10	-1.74928e-08	3.3422e-07	-3.3476e-07	3.24166e-08	-2.5621e-10	-3.08366e-08	3.3436e-07	-3.3584e-07	5.72044e-08	-5.1057e-10	-5.38372e-08	3.3502e-07	-3.379e-07	1.003472e-07	-9.1373e-10	-9.38756e-08	3.3474e-07	-3.4036e-07	1.7406e-07	-1.5075e-09	-1.6276e-07	3.3508e-07	-3.451e-07
-0.145	4.4141e-10	-1.217e-11	-4.569e-10	3.3482e-07	-3.3476e-07	1.11547e-08	-3.776e-11	-1.08741e-08	3.3464e-07	-3.3488e-07	2.06424e-08	-1.0493e-10	-1.9913e-08	3.3422e-07	-3.348e-07	3.67822e-08	-2.4852e-10	-3.51396e-08	3.344e-07	-3.3566e-07	6.47004e-08	-4.9998e-10	-6.1169e-08	3.35e-07	-3.379e-07	1.13132e-07	-8.9643e-10	-1.059242e-07	3.3478e-07	-3.4042e-07	1.948e-07	-1.4801e-09	-1.8328e-07	3.3504e-07	-3.4512e-07
-0.14	4.9963e-10	-1.249e-11	-4.9831e-10	3.35e-07	-3.3482e-07	1.2722e-08	-3.585e-11	-1.24598e-08	3.3476e-07	-3.3484e-07	2.34286e-08	-1.0228e-10	-2.27276e-08	3.3418e-07	-3.3476e-07	4.15806e-08	-2.4307e-10	-3.9947e-08	3.3446e-07	-3.357e-07	7.28492e-08	-4.8662e-10	-6.9409e-08	3.351e-07	-3.3798e-07	1.2674e-07	-8.7693e-10	-1.2026e-07	3.346e-07	-3.4028e-07	2.1838e-07	-1.4555e-09	-2.0752e-07	3.3504e-07	-3.4512e-07
-0.135	5.7206e-10	-1.118e-11	-5.7456e-10	3.3518e-07	-3.3512e-07	1.4507e-08	-3.346e-11	-1.42378e-08	3.3472e-07	-3.3494e-07	2.66702e-08	-9.811e-11	-2.60156e-08	3.348e-07	-3.3536e-07	4.72216e-08	-2.3366e-10	-4.55906e-08	3.343e-07	-3.3572e-07	8.2439e-08	-4.7634e-10	-7.90132e-08	3.3488e-07	-3.378e-07	1.4348e-07	-8.5923e-10	-1.364e-07	3.3474e-07	-3.4032e-07	2.46e-07	-1.4285e-09	-2.3388e-07	3.3514e-07	-3.452e-07
-0.13	6.782e-10	-1.115e-11	-6.339e-10	3.3508e-07	-3.3508e-07	1.65254e-08	-3.23e-11	-1.62256e-08	3.3462e-07	-3.3488e-07	3.0384e-08	-9.37e-11	-2.96004e-08	3.3466e-07	-3.3522e-07	5.34724e-08	-2.2759e-10	-5.1882e-08	3.343e-07	-3.3572e-07	9.32716e-08	-4.6637e-10	-8.96368e-08	3.3502e-07	-3.38e-07	1.6068e-07	-8.4334e-10	-1.5508e-07	3.347e-07	-3.4036e-07	2.7642e-07	-1.4055e-09	-2.652e-07	3.3556e-07	-3.456e-07
-0.125	7.4594e-10	-9.72e-12	-7.4252e-10	3.3512e-07	-3.351e-07	1.8869e-08	-3.113e-11	-1.86262e-08	3.3466e-07	-3.349e-07	3.4612e-08	-9.122e-11	-3.38404e-08	3.347e-07	-3.3526e-07	6.09106e-08	-2.2184e-10	-5.92064e-08	3.3432e-07	-3.3566e-07	1.052726e-07	-4.5278e-10	-1.017612e-07	3.3496e-07	-3.3792e-07	1.8176e-07	-8.2673e-10	-1.754e-07	3.3476e-07	-3.4038e-07	3.1002e-07	-1.3811e-09	-2.9948e-07	3.3554e-07	-3.4556e-07
-0.12	8.5305e-10	-8e-12	-8.5099e-10	3.3508e-07	-3.3496e-07	2.14754e-08	-2.833e-11	-2.13292e-08	3.3468e-07	-3.3488e-07	3.94016e-08	-8.763e-11	-3.86948e-08	3.3466e-07	-3.352e-07	6.8962e-08	-2.1447e-10	-6.73242e-08	3.3428e-07	-3.3566e-07	1.191e-07	-4.4262e-10	-1.158524e-07	3.349e-07	-3.378e-07	2.0468e-07	-8.1071e-10	-1.9896e-07	3.347e-07	-3.4036e-07	3.481e-07	-1.3582e-09	-3.3746e-07	3.3552e-07	-3.455e-07
-0.115	9.2496e-10	-8.66e-12	-9.8588e-10	3.3506e-07	-3.3514e-07	2.46094e-08	-2.761e-11	-2.42958e-08	3.3466e-07	-3.3488e-07	4.49348e-08	-8.275e-11	-4.40998e-08	3.3464e-07	-3.3536e-07	7.85448e-08	-2.0858e-10	-7.68234e-08	3.3438e-07	-3.3566e-07	1.3592e-07	-4.3124e-10	-1.3186e-07	3.3508e-07	-3.3794e-07	2.317e-07	-7.9358e-10	-2.2474e-07	3.3472e-07	-3.403e-07	3.9272e-07	-1.3357e-09	-3.8156e-07	3.3544e-07	-3.4546e-07
-0.11	1.12528e-09	-5.8e-12	-1.13124e-09	3.3514e-07	-3.3506e-07	2.80748e-08	-2.864e-11	-2.7781e-08	3.3472e-07	-3.3488e-07	5.09124e-08	-8.11e-11	-5.06012e-08	3.347e-07	-3.3528e-07	8.90872e-08	-2.0256e-10	-8.74932e-08	3.3422e-07	-3.3558e-07	1.5332e-07	-4.2306e-10	-1.5012e-07	3.3502e-07	-3.3786e-07	2.623e-07	-7.772e-10	-2.5454e-07	3.347e-07	-3.4026e-07	4.4296e-07	-1.313e-09	-4.3092e-07	3.3556e-07	-3.455e-07
-0.105	1.3198e-09	-7.47e-12	-1.2939e-09	3.3504e-07	-3.3496e-07	3.20562e-08	-2.423e-11	-3.18894e-08	3.3468e-07	-3.3484e-07	5.8436e-08	-7.751e-11	-5.76478e-08	3.3466e-07	-3.3528e-07	1.015094e-07	-1.9604e-10	-9.98e-08	3.3436e-07	-3.3568e-07	1.7418e-07	-4.1162e-10	-1.7008e-07	3.35e-07	-3.3794e-07	2.954e-07	-7.6259e-10	-2.8908e-07	3.3472e-07	-3.4022e-07	4.9864e-07	-1.2881e-09	-4.8888e-07	3.3532e-07	-3.455e-07
-0.1	1.4486e-09	-6.3e-12	-1.4956e-09	3.351e-07	-3.3508e-07	3.65858e-08	-2.337e-11	-3.63468e-08	3.3476e-07	-3.3486e-07	6.63432e-08	-7.319e-11	-6.60684e-08	3.3464e-07	-3.3524e-07	1.1514e-07	-1.8953e-10	-1.139624e-07	3.3436e-07	-3.357e-07	1.9714e-07	-4.0109e-10	-1.932e-07	3.3496e-07	-3.379e-07	3.3376e-07	-7.442e-10	-3.284e-07	3.3472e-07	-3.4032e-07	5.6284e-07	-1.2669e-09	-5.492e-07	3.355e-07	-3.4552e-07
-0.095	1.7495e-09	-4.82e-12	-1.6706e-09	3.352e-07	-3.3512e-07	4.20254e-08	-2.229e-11	-4.16008e-08	3.3454e-07	-3.3484e-07	7.62256e-08	-7.215e-11	-7.5118e-08	3.347e-07	-3.3518e-07	1.3118e-07	-1.8351e-10	-1.3052e-07	3.3434e-07	-3.3568e-07	2.2372e-07	-3.9116e-10	-2.2054e-07	3.35e-07	-3.3788e-07	3.7778e-07	-7.3157e-10	-3.7116e-07	3.3478e-07	-3.403e-07	6.3562e-07	-1.243e-09	-6.2252e-07	3.3532e-07	-3.4538e-07
-0.09	1.9388e-09	-5.6e-12	-2.001e-09	3.3518e-07	-3.3514e-07	4.7915e-08	-2.089e-11	-4.78066e-08	3.3464e-07	-3.3484e-07	8.68506e-08	-6.876e-11	-8.62784e-08	3.3464e-07	-3.3522e-07	1.4958e-07	-1.7832e-10	-1.4832e-07	3.343e-07	-3.3568e-07	2.5498e-07	-3.8211e-10	-2.5166e-07	3.3514e-07	-3.3806e-07	4.3004e-07	-7.1703e-10	-4.23e-07	3.3476e-07	-3.4024e-07	7.152e-07	-1.2212e-09	-7.0368e-07	3.3542e-07	-3.4542e-07
-0.085	2.2406e-09	-4.38e-12	-2.2356e-09	3.3512e-07	-3.3506e-07	5.47728e-08	-1.943e-11	-5.4548e-08	3.3472e-07	-3.3484e-07	9.89462e-08	-6.537e-11	-9.836e-08	3.3466e-07	-3.3526e-07	1.7018e-07	-1.7254e-10	-1.6886e-07	3.3432e-07	-3.3566e-07	2.89e-07	-3.7307e-10	-2.872e-07	3.3512e-07	-3.38e-07	4.8554e-07	-6.9964e-10	-4.7862e-07	3.346e-07	-3.4018e-07	8.0704e-07	-1.1987e-09	-7.9816e-07	3.3548e-07	-3.4542e-07
-0.08	2.4552e-09	-5.21e-12	-2.5781e-09	3.3502e-07	-3.3502e-07	6.29018e-08	-1.892e-11	-6.24516e-08	3.347e-07	-3.3484e-07	1.133568e-07	-6.441e-11	-1.125472e-07	3.3466e-07	-3.3518e-07	1.9418e-07	-1.6685e-10	-1.9222e-07	3.343e-07	-3.3566e-07	3.2882e-07	-3.6291e-10	-3.241e-07	3.35e-07	-3.3782e-07	5.5078e-07	-6.8664e-10	-5.4472e-07	3.347e-07	-3.4024e-07	9.1798e-07	-1.1764e-09	-9.032e-07	3.3548e-07	-3.4536e-07
-0.075	2.9791e-09	-3.76e-12	-2.8071e-09	3.3506e-07	-3.351e-07	7.18124e-08	-1.614e-11	-7.16592e-08	3.3478e-07	-3.3498e-07	1.292e-07	-6.122e-11	-1.286e-07	3.3466e-07	-3.3522e-07	2.2088e-07	-1.6184e-10	-2.1902e-07	3.343e-07	-3.3562e-07	3.733e-07	-3.5472e-10	-3.7082e-07	3.35e-07	-3.3794e-07	6.251e-07	-6.7261e-10	-6.1614e-07	3.3458e-07	-3.4012e-07	1.03512e-06	-1.1562e-09	-1.02202e-06	3.3548e-07	-3.4544e-07
-0.07	3.3659e-09	-5.09e-12	-3.2554e-09	3.348e-07	-3.347e-07	8.21192e-08	-1.726e-11	-8.20834e-08	3.349e-07	-3.3508e-07	1.4762e-07	-5.937e-11	-1.4674e-07	3.3464e-07	-3.3532e-07	2.5266e-07	-1.5669e-10	-2.52e-07	3.343e-07	-3.3564e-07	4.2714e-07	-3.4618e-10	-4.246e-07	3.3494e-07	-3.3784e-07	7.1004e-07	-6.5667e-10	-7.0302e-07	3.346e-07	-3.4024e-07	1.1695e-06	-1.1354e-09	-1.15762e-06	3.3546e-07	-3.4538e-07
-0.065	3.8597e-09	-3.89e-12	-3.6874e-09	3.3476e-07	-3.3476e-07	9.41766e-08	-1.62e-11	-9.37384e-08	3.3508e-07	-3.3506e-07	1.6876e-07	-5.533e-11	-1.689e-07	3.3482e-07	-3.3532e-07	2.8776e-07	-1.5295e-10	-2.8562e-07	3.3424e-07	-3.356e-07	4.8376e-07	-3.362e-10	-4.8094e-07	3.3484e-07	-3.377e-07	8.0342e-07	-6.4275e-10	-7.9608e-07	3.3458e-07	-3.4016e-07	1.3218e-06	-1.1149e-09	-1.3149e-06	3.3542e-07	-3.453e-07
