Vg	Id,Vd=0V	Ig,Vd=0V	Is,Vd=0V	Iavdd,Vd=0V	Ignd,Vd=0V	Id,Vd=0.15V	Ig,Vd=0.15V	Is,Vd=0.15V	Iavdd,Vd=0.15V	Ignd,Vd=0.15V	Id,Vd=0.3V	Ig,Vd=0.3V	Is,Vd=0.3V	Iavdd,Vd=0.3V	Ignd,Vd=0.3V	Id,Vd=0.45V	Ig,Vd=0.45V	Is,Vd=0.45V	Iavdd,Vd=0.45V	Ignd,Vd=0.45V	Id,Vd=0.6V	Ig,Vd=0.6V	Is,Vd=0.6V	Iavdd,Vd=0.6V	Ignd,Vd=0.6V	Id,Vd=0.75V	Ig,Vd=0.75V	Is,Vd=0.75V	Iavdd,Vd=0.75V	Ignd,Vd=0.75V	Id,Vd=0.9V	Ig,Vd=0.9V	Is,Vd=0.9V	Iavdd,Vd=0.9V	Ignd,Vd=0.9V
1.2	-5.8094e-08	1.0371e-09	7.1225e-09	4.8286e-07	-4.3282e-07	-3.14096e-08	7.1601e-10	3.3217e-09	4.6106e-07	-4.3386e-07	-1.64214e-08	4.8047e-10	1.4943e-09	4.481e-07	-4.3358e-07	-7.9469e-09	3.103e-10	6.5358e-10	4.403e-07	-4.3336e-07	-3.5283e-09	1.9684e-10	2.8183e-10	4.3608e-07	-4.3294e-07	-1.2462e-09	1.2365e-10	1.0869e-10	4.3366e-07	-4.326e-07	-2.393e-11	7.386e-11	-3.84e-11	4.3238e-07	-4.3242e-07
1.195	-5.86568e-08	1.0152e-09	7.8274e-09	4.8264e-07	-4.326e-07	-3.14706e-08	7.0317e-10	3.6663e-09	4.6096e-07	-4.3378e-07	-1.64756e-08	4.6803e-10	1.6478e-09	4.4788e-07	-4.3346e-07	-8.0138e-09	3.012e-10	7.2747e-10	4.4028e-07	-4.3336e-07	-3.5644e-09	1.8883e-10	3.1454e-10	4.3596e-07	-4.3278e-07	-1.2609e-09	1.1848e-10	1.2787e-10	4.3376e-07	-4.326e-07	-3.55e-11	6.724e-11	-3.803e-11	4.3234e-07	-4.3234e-07
1.19	-5.92428e-08	1.0041e-09	8.6423e-09	4.8226e-07	-4.3264e-07	-3.18048e-08	6.8918e-10	4.0445e-09	4.6082e-07	-4.3376e-07	-1.6642e-08	4.6066e-10	1.8301e-09	4.4798e-07	-4.3364e-07	-8.0936e-09	2.953e-10	8.1384e-10	4.4024e-07	-4.3322e-07	-3.6063e-09	1.8337e-10	3.5406e-10	4.359e-07	-4.3284e-07	-1.2825e-09	1.1147e-10	1.4998e-10	4.337e-07	-4.3268e-07	-3.287e-11	6.594e-11	-4.082e-11	4.3246e-07	-4.3248e-07
1.185	-5.99504e-08	9.8818e-10	9.5054e-09	4.8208e-07	-4.3264e-07	-3.21592e-08	6.7872e-10	4.4675e-09	4.609e-07	-4.3378e-07	-1.68328e-08	4.5207e-10	2.0422e-09	4.4804e-07	-4.3366e-07	-8.1816e-09	2.8868e-10	9.0673e-10	4.4044e-07	-4.334e-07	-3.6372e-09	1.7889e-10	3.9784e-10	4.36e-07	-4.3288e-07	-1.2979e-09	1.1066e-10	1.7087e-10	4.3362e-07	-4.326e-07	-2.795e-11	6.251e-11	-4.035e-11	4.3246e-07	-4.3246e-07
1.18	-6.0752e-08	9.7304e-10	1.05098e-08	4.818e-07	-4.326e-07	-3.25818e-08	6.7006e-10	4.9482e-09	4.6052e-07	-4.3356e-07	-1.70398e-08	4.4345e-10	2.2657e-09	4.479e-07	-4.3348e-07	-8.2762e-09	2.8418e-10	1.01756e-09	4.4036e-07	-4.3336e-07	-3.691e-09	1.758e-10	4.4863e-10	4.3614e-07	-4.33e-07	-1.3213e-09	1.0597e-10	1.9539e-10	4.3388e-07	-4.3272e-07	-2.795e-11	6.209e-11	-3.818e-11	4.3232e-07	-4.324e-07
1.175	-6.168e-08	9.573e-10	1.15916e-08	4.8166e-07	-4.3248e-07	-3.3048e-08	6.5413e-10	5.455e-09	4.606e-07	-4.337e-07	-1.72758e-08	4.3451e-10	2.5103e-09	4.4766e-07	-4.3324e-07	-8.382e-09	2.7822e-10	1.13969e-09	4.4012e-07	-4.3324e-07	-3.7401e-09	1.7122e-10	5.0368e-10	4.3592e-07	-4.3288e-07	-1.3439e-09	1.0229e-10	2.2065e-10	4.3366e-07	-4.3258e-07	-3.093e-11	6.113e-11	-3.52e-11	4.3244e-07	-4.3238e-07
1.17	-6.2673e-08	9.4234e-10	1.2767e-08	4.8152e-07	-4.3256e-07	-3.3578e-08	6.4729e-10	6.0451e-09	4.603e-07	-4.334e-07	-1.75336e-08	4.2721e-10	2.798e-09	4.475e-07	-4.3328e-07	-8.5126e-09	2.7214e-10	1.2897e-09	4.401e-07	-4.331e-07	-3.8089e-09	1.6416e-10	5.69e-10	4.3584e-07	-4.3276e-07	-1.3721e-09	9.771e-11	2.5065e-10	4.3358e-07	-4.3252e-07	-2.566e-11	5.876e-11	-3.397e-11	4.3236e-07	-4.3234e-07
1.165	-6.38278e-08	9.3023e-10	1.40954e-08	4.8156e-07	-4.3272e-07	-3.41718e-08	6.3809e-10	6.6827e-09	4.604e-07	-4.3358e-07	-1.78232e-08	4.173e-10	3.1144e-09	4.475e-07	-4.3314e-07	-8.6436e-09	2.6594e-10	1.4357e-09	4.3998e-07	-4.3302e-07	-3.8677e-09	1.6228e-10	6.3962e-10	4.3574e-07	-4.3274e-07	-1.408e-09	9.543e-11	2.8245e-10	4.3368e-07	-4.3268e-07	-2.433e-11	5.563e-11	-3.04e-11	4.324e-07	-4.324e-07
1.16	-6.5177e-08	9.1323e-10	1.5577e-08	4.8152e-07	-4.3272e-07	-3.48532e-08	6.2683e-10	7.4068e-09	4.6028e-07	-4.3342e-07	-1.816e-08	4.0641e-10	3.4505e-09	4.4752e-07	-4.3322e-07	-8.8157e-09	2.591e-10	1.5983e-09	4.3994e-07	-4.33e-07	-3.9459e-09	1.5784e-10	7.228e-10	4.3578e-07	-4.3268e-07	-1.4371e-09	9.02e-11	3.1763e-10	4.3358e-07	-4.3248e-07	-2.785e-11	5.228e-11	-2.858e-11	4.3236e-07	-4.3222e-07
1.155	-6.6709e-08	9.0241e-10	1.72272e-08	4.814e-07	-4.327e-07	-3.5626e-08	6.1559e-10	8.2007e-09	4.6026e-07	-4.3344e-07	-1.85368e-08	4.0184e-10	3.8449e-09	4.4746e-07	-4.3316e-07	-8.9831e-09	2.5326e-10	1.7855e-09	4.3988e-07	-4.3292e-07	-4.0328e-09	1.5489e-10	8.1684e-10	4.3584e-07	-4.3274e-07	-1.4847e-09	8.7e-11	3.6047e-10	4.3364e-07	-4.3262e-07	-2.725e-11	4.934e-11	-2.582e-11	4.3244e-07	-4.3244e-07
1.15	-6.83862e-08	8.8932e-10	1.9002e-08	4.8118e-07	-4.327e-07	-3.64436e-08	6.081e-10	9.0928e-09	4.6012e-07	-4.3338e-07	-1.89452e-08	3.9398e-10	4.2785e-09	4.4736e-07	-4.3312e-07	-9.1979e-09	2.4557e-10	1.9859e-09	4.4e-07	-4.3294e-07	-4.1325e-09	1.5016e-10	9.2127e-10	4.3588e-07	-4.3276e-07	-1.5255e-09	8.442e-11	4.0542e-10	4.3366e-07	-4.3252e-07	-2.04e-11	4.809e-11	-2.34e-11	4.3246e-07	-4.3242e-07
1.145	-7.02728e-08	8.7574e-10	2.10664e-08	4.8114e-07	-4.328e-07	-3.73812e-08	5.9586e-10	1.0073e-08	4.6006e-07	-4.3328e-07	-1.9422e-08	3.8705e-10	4.7617e-09	4.4732e-07	-4.3298e-07	-9.4286e-09	2.4236e-10	2.2203e-09	4.3998e-07	-4.33e-07	-4.2368e-09	1.4958e-10	1.03761e-09	4.358e-07	-4.3282e-07	-1.583e-09	8.224e-11	4.5807e-10	4.3362e-07	-4.3254e-07	-2.183e-11	4.515e-11	-2.123e-11	4.3262e-07	-4.326e-07
1.14	-7.23502e-08	8.6168e-10	2.32354e-08	4.8076e-07	-4.3252e-07	-3.84322e-08	5.8191e-10	1.11551e-08	4.5982e-07	-4.3302e-07	-1.99452e-08	3.8052e-10	5.2912e-09	4.474e-07	-4.3308e-07	-9.6761e-09	2.3721e-10	2.4794e-09	4.3998e-07	-4.3294e-07	-4.3544e-09	1.4243e-10	1.1527e-09	4.3578e-07	-4.3268e-07	-1.6321e-09	7.963e-11	5.166e-10	4.3362e-07	-4.3258e-07	-2.627e-11	4.516e-11	-1.845e-11	4.3258e-07	-4.3258e-07
1.135	-7.4664e-08	8.5233e-10	2.57572e-08	4.806e-07	-4.3258e-07	-3.96112e-08	5.7427e-10	1.23788e-08	4.597e-07	-4.3308e-07	-2.05352e-08	3.7614e-10	5.9085e-09	4.473e-07	-4.331e-07	-9.9608e-09	2.3123e-10	2.7749e-09	4.3986e-07	-4.3294e-07	-4.4968e-09	1.3582e-10	1.2905e-09	4.3576e-07	-4.327e-07	-1.6999e-09	7.526e-11	5.8413e-10	4.3358e-07	-4.3258e-07	-1.607e-11	4.466e-11	-1.664e-11	4.3236e-07	-4.3232e-07
1.13	-7.72812e-08	8.3825e-10	2.84196e-08	4.8054e-07	-4.3254e-07	-4.0919e-08	5.6593e-10	1.37442e-08	4.5974e-07	-4.3304e-07	-2.1174e-08	3.669e-10	6.5698e-09	4.4726e-07	-4.3304e-07	-1.02784e-08	2.2605e-10	3.1044e-09	4.3984e-07	-4.3276e-07	-4.647e-09	1.3282e-10	1.4505e-09	4.3572e-07	-4.3252e-07	-1.7753e-09	7.581e-11	6.5752e-10	4.3358e-07	-4.326e-07	-2.018e-11	4.126e-11	-1.404e-11	4.3252e-07	-4.3254e-07
1.125	-8.01696e-08	8.2608e-10	3.15194e-08	4.8036e-07	-4.325e-07	-4.24298e-08	5.5269e-10	1.52578e-08	4.597e-07	-4.3298e-07	-2.19122e-08	3.5657e-10	7.3099e-09	4.4734e-07	-4.3312e-07	-1.06426e-08	2.2361e-10	3.4767e-09	4.3972e-07	-4.3288e-07	-4.8262e-09	1.3161e-10	1.631e-09	4.3576e-07	-4.3286e-07	-1.8528e-09	7.206e-11	7.4295e-10	4.3354e-07	-4.3252e-07	-2.114e-11	3.97e-11	-1.093e-11	4.3236e-07	-4.324e-07
1.12	-8.33984e-08	8.157e-10	3.4763e-08	4.8028e-07	-4.324e-07	-4.4081e-08	5.4773e-10	1.69394e-08	4.5954e-07	-4.3292e-07	-2.2742e-08	3.5287e-10	8.1488e-09	4.474e-07	-4.331e-07	-1.10439e-08	2.186e-10	3.8873e-09	4.3974e-07	-4.3282e-07	-5.0201e-09	1.2988e-10	1.8333e-09	4.3576e-07	-4.3264e-07	-1.9451e-09	7.005e-11	8.4099e-10	4.336e-07	-4.3248e-07	-1.753e-11	3.599e-11	-9.31e-12	4.3242e-07	-4.3232e-07
1.115	-8.71174e-08	8.0668e-10	3.85718e-08	4.8026e-07	-4.3248e-07	-4.59694e-08	5.3646e-10	1.8807e-08	4.595e-07	-4.3296e-07	-2.36682e-08	3.4465e-10	9.0923e-09	4.4724e-07	-4.3284e-07	-1.14968e-08	2.1333e-10	4.3476e-09	4.3994e-07	-4.3302e-07	-5.2415e-09	1.2542e-10	2.0648e-09	4.3576e-07	-4.3264e-07	-2.0468e-09	6.814e-11	9.5176e-10	4.3376e-07	-4.327e-07	-1.67e-11	3.597e-11	-7.73e-12	4.3242e-07	-4.3238e-07
1.11	-9.1146e-08	7.9318e-10	4.2708e-08	4.8022e-07	-4.325e-07	-4.80072e-08	5.2738e-10	2.0885e-08	4.595e-07	-4.3292e-07	-2.46862e-08	3.3761e-10	1.01188e-08	4.471e-07	-4.3292e-07	-1.2007e-08	2.0737e-10	4.868e-09	4.3974e-07	-4.3278e-07	-5.4872e-09	1.199e-10	2.3181e-09	4.3588e-07	-4.3274e-07	-2.175e-09	6.729e-11	1.07601e-09	4.337e-07	-4.3268e-07	-1.801e-11	3.231e-11	-5.94e-12	4.324e-07	-4.323e-07
1.105	-9.57004e-08	7.8221e-10	4.73592e-08	4.801e-07	-4.3242e-07	-5.03066e-08	5.1682e-10	2.32326e-08	4.5946e-07	-4.3288e-07	-2.5844e-08	3.3033e-10	1.12852e-08	4.4714e-07	-4.3288e-07	-1.25898e-08	2.0058e-10	5.4397e-09	4.3974e-07	-4.3282e-07	-5.7753e-09	1.153e-10	2.6077e-09	4.3572e-07	-4.3264e-07	-2.2977e-09	6.529e-11	1.2161e-09	4.3354e-07	-4.3252e-07	-2.194e-11	3.268e-11	-4.6e-12	4.324e-07	-4.324e-07
1.1	-1.006808e-07	7.7271e-10	5.239e-08	4.803e-07	-4.3254e-07	-5.28448e-08	5.1084e-10	2.58048e-08	4.5976e-07	-4.3316e-07	-2.7141e-08	3.26e-10	1.25694e-08	4.472e-07	-4.3294e-07	-1.32258e-08	1.9799e-10	6.0818e-09	4.3972e-07	-4.328e-07	-6.0821e-09	1.1523e-10	2.9264e-09	4.3572e-07	-4.3248e-07	-2.4586e-09	5.918e-11	1.3625e-09	4.3352e-07	-4.3236e-07	-1.28e-11	3.291e-11	-3.5e-12	4.3242e-07	-4.3242e-07
1.095	-1.06303e-07	7.5899e-10	5.80884e-08	4.801e-07	-4.3268e-07	-5.57342e-08	4.9867e-10	2.86916e-08	4.5944e-07	-4.3274e-07	-2.85966e-08	3.1997e-10	1.40586e-08	4.471e-07	-4.3288e-07	-1.39432e-08	1.9581e-10	6.8303e-09	4.397e-07	-4.3276e-07	-6.4434e-09	1.1278e-10	3.2881e-09	4.3586e-07	-4.3276e-07	-2.6195e-09	5.65e-11	1.5337e-09	4.3352e-07	-4.3246e-07	-2.316e-11	2.815e-11	-1.8e-13	4.3232e-07	-4.323e-07
1.09	-1.125506e-07	7.4595e-10	6.43956e-08	4.8002e-07	-4.3246e-07	-5.88754e-08	4.9507e-10	3.19154e-08	4.5952e-07	-4.3282e-07	-3.02062e-08	3.112e-10	1.56672e-08	4.4704e-07	-4.3288e-07	-1.4746e-08	1.8981e-10	7.6318e-09	4.3976e-07	-4.3276e-07	-6.8419e-09	1.083e-10	3.6834e-09	4.3588e-07	-4.328e-07	-2.8202e-09	5.352e-11	1.7222e-09	4.335e-07	-4.3248e-07	-2.15e-11	2.937e-11	1.13e-12	4.3246e-07	-4.324e-07
1.085	-1.1948e-07	7.3644e-10	7.14138e-08	4.7982e-07	-4.3248e-07	-6.2485e-08	4.8218e-10	3.55234e-08	4.5934e-07	-4.3288e-07	-3.20368e-08	3.0655e-10	1.74972e-08	4.4712e-07	-4.3276e-07	-1.567e-08	1.8458e-10	8.5358e-09	4.396e-07	-4.3258e-07	-7.296e-09	1.0445e-10	4.136e-09	4.3568e-07	-4.325e-07	-3.0333e-09	5.49e-11	1.941e-09	4.335e-07	-4.3254e-07	-1.8e-11	2.506e-11	9e-13	4.3242e-07	-4.3236e-07
1.08	-1.2712e-07	7.2239e-10	7.9199e-08	4.7982e-07	-4.3246e-07	-6.6462e-08	4.7634e-10	3.94782e-08	4.5922e-07	-4.3286e-07	-3.40398e-08	3.0122e-10	1.95108e-08	4.472e-07	-4.329e-07	-1.66608e-08	1.8218e-10	9.5628e-09	4.397e-07	-4.3274e-07	-7.7922e-09	1.0154e-10	4.6341e-09	4.3566e-07	-4.3268e-07	-3.2747e-09	5.082e-11	2.1847e-09	4.336e-07	-4.3242e-07	-1.835e-11	2.532e-11	8.3e-13	4.3244e-07	-4.3246e-07
1.075	-1.3586e-07	7.0936e-10	8.79306e-08	4.7988e-07	-4.3264e-07	-7.08732e-08	4.6648e-10	4.3977e-08	4.5924e-07	-4.3274e-07	-3.63336e-08	2.9459e-10	2.18244e-08	4.4708e-07	-4.3282e-07	-1.78156e-08	1.7488e-10	1.07366e-08	4.3966e-07	-4.3274e-07	-8.3674e-09	9.579e-11	5.21e-09	4.356e-07	-4.3264e-07	-3.553e-09	4.941e-11	2.4651e-09	4.3358e-07	-4.3246e-07	-1.836e-11	2.1e-11	8.5e-13	4.3244e-07	-4.3236e-07
1.07	-1.454e-07	6.9645e-10	9.7467e-08	4.7988e-07	-4.3248e-07	-7.58664e-08	4.6049e-10	4.89366e-08	4.5926e-07	-4.3278e-07	-3.88462e-08	2.885e-10	2.43328e-08	4.47e-07	-4.3278e-07	-1.91136e-08	1.7056e-10	1.20044e-08	4.3966e-07	-4.3274e-07	-9.0067e-09	9.267e-11	5.8483e-09	4.3562e-07	-4.3254e-07	-3.8576e-09	4.809e-11	2.7779e-09	4.3356e-07	-4.326e-07	-2.641e-11	2.27e-11	1.47e-12	4.3244e-07	-4.324e-07
1.065	-1.5614e-07	6.8671e-10	1.083294e-07	4.7966e-07	-4.3254e-07	-8.14176e-08	4.4995e-10	5.4542e-08	4.5936e-07	-4.3302e-07	-4.1724e-08	2.8429e-10	2.72438e-08	4.4696e-07	-4.3268e-07	-2.05754e-08	1.6673e-10	1.34596e-08	4.3966e-07	-4.3264e-07	-9.725e-09	9.279e-11	6.571e-09	4.356e-07	-4.3254e-07	-4.2115e-09	4.723e-11	3.1304e-09	4.337e-07	-4.3258e-07	-1.467e-11	2.129e-11	-2.9e-13	4.3246e-07	-4.324e-07
1.06	-1.6784e-07	6.7467e-10	1.2026e-07	4.7964e-07	-4.3246e-07	-8.76054e-08	4.4481e-10	6.078e-08	4.5942e-07	-4.33e-07	-4.48978e-08	2.784e-10	3.03914e-08	4.4698e-07	-4.3284e-07	-2.21792e-08	1.6443e-10	1.50822e-08	4.397e-07	-4.3272e-07	-1.05261e-08	9.101e-11	7.3792e-09	4.3558e-07	-4.325e-07	-4.5928e-09	4.497e-11	3.5271e-09	4.3368e-07	-4.326e-07	-2.756e-11	1.913e-11	1.74e-12	4.3246e-07	-4.325e-07
1.055	-1.8148e-07	6.6835e-10	1.3376e-07	4.7956e-07	-4.3246e-07	-9.46204e-08	4.3481e-10	6.76728e-08	4.592e-07	-4.328e-07	-4.851e-08	2.7415e-10	3.40382e-08	4.4692e-07	-4.327e-07	-2.4013e-08	1.6013e-10	1.69132e-08	4.3968e-07	-4.3274e-07	-1.14557e-08	9.004e-11	8.3149e-09	4.3554e-07	-4.3252e-07	-5.0508e-09	4.314e-11	3.9812e-09	4.3372e-07	-4.327e-07	-2.855e-11	1.709e-11	1.59e-12	4.3256e-07	-4.3258e-07
1.05	-1.9612e-07	6.6148e-10	1.4852e-07	4.7954e-07	-4.3248e-07	-1.02234e-07	4.2893e-10	7.54484e-08	4.5918e-07	-4.3276e-07	-5.2485e-08	2.6869e-10	3.8033e-08	4.4696e-07	-4.3278e-07	-2.60474e-08	1.5809e-10	1.89564e-08	4.397e-07	-4.3268e-07	-1.2479e-08	8.648e-11	9.3324e-09	4.3584e-07	-4.3266e-07	-5.534e-09	4.357e-11	4.4781e-09	4.337e-07	-4.326e-07	-2.749e-11	1.527e-11	4e-13	4.3236e-07	-4.3242e-07
1.045	-2.1264e-07	6.4517e-10	1.652e-07	4.7944e-07	-4.3254e-07	-1.110314e-07	4.1966e-10	8.4161e-08	4.5916e-07	-4.3278e-07	-5.69914e-08	2.6274e-10	4.25362e-08	4.47e-07	-4.3278e-07	-2.83708e-08	1.5105e-10	2.12746e-08	4.3962e-07	-4.3262e-07	-1.36378e-08	8.519e-11	1.05174e-08	4.3568e-07	-4.3264e-07	-6.1034e-09	4.055e-11	5.0461e-09	4.3352e-07	-4.3242e-07	-2.891e-11	1.65e-11	2.64e-12	4.3246e-07	-4.3242e-07
1.04	-2.31e-07	6.3462e-10	1.8328e-07	4.7938e-07	-4.3246e-07	-1.2058e-07	4.1463e-10	9.38414e-08	4.5906e-07	-4.3266e-07	-6.2e-08	2.5719e-10	4.75408e-08	4.4688e-07	-4.3278e-07	-3.0927e-08	1.5011e-10	2.38464e-08	4.396e-07	-4.327e-07	-1.49364e-08	8.136e-11	1.18056e-08	4.3556e-07	-4.326e-07	-6.7313e-09	3.77e-11	5.6771e-09	4.3352e-07	-4.3246e-07	-3.077e-11	1.389e-11	9.07e-12	4.3234e-07	-4.3258e-07
1.035	-2.5134e-07	6.2569e-10	2.0398e-07	4.7956e-07	-4.327e-07	-1.316e-07	4.0891e-10	1.04708e-07	4.5908e-07	-4.3268e-07	-6.76934e-08	2.5425e-10	5.32468e-08	4.4684e-07	-4.3274e-07	-3.38474e-08	1.4565e-10	2.67716e-08	4.3952e-07	-4.3254e-07	-1.64072e-08	7.881e-11	1.32704e-08	4.3572e-07	-4.3258e-07	-7.4614e-09	3.431e-11	6.3911e-09	4.3368e-07	-4.3262e-07	-3.69e-11	1.475e-11	9.56e-12	4.3244e-07	-4.3242e-07
1.03	-2.7416e-07	6.1753e-10	2.2686e-07	4.7924e-07	-4.325e-07	-1.4338e-07	4.0066e-10	1.1668e-07	4.5908e-07	-4.3262e-07	-7.3984e-08	2.4749e-10	5.95578e-08	4.4692e-07	-4.327e-07	-3.7085e-08	1.4165e-10	3.0026e-08	4.3954e-07	-4.3258e-07	-1.80506e-08	7.894e-11	1.49358e-08	4.3566e-07	-4.3258e-07	-8.2612e-09	3.424e-11	7.1936e-09	4.3368e-07	-4.3258e-07	-2.735e-11	1.525e-11	1.266e-11	4.3242e-07	-4.325e-07
1.025	-2.9988e-07	6.1293e-10	2.5246e-07	4.7924e-07	-4.3242e-07	-1.5708e-07	3.9412e-10	1.3048e-07	4.5904e-07	-4.3274e-07	-8.11012e-08	2.4375e-10	6.6707e-08	4.4696e-07	-4.3278e-07	-4.08122e-08	1.3859e-10	3.37196e-08	4.395e-07	-4.3248e-07	-1.99346e-08	7.367e-11	1.67994e-08	4.3578e-07	-4.327e-07	-9.1698e-09	3.224e-11	8.1018e-09	4.3372e-07	-4.3264e-07	-4.281e-11	1.145e-11	1.471e-11	4.324e-07	-4.323e-07
1.02	-3.2836e-07	6.0033e-10	2.8086e-07	4.7934e-07	-4.3252e-07	-1.7204e-07	3.8817e-10	1.4522e-07	4.5898e-07	-4.3264e-07	-8.90024e-08	2.3989e-10	7.45194e-08	4.4686e-07	-4.3262e-07	-4.48698e-08	1.3575e-10	3.78376e-08	4.3976e-07	-4.3282e-07	-2.20214e-08	7.327e-11	1.88858e-08	4.357e-07	-4.326e-07	-1.01888e-08	3.074e-11	9.1162e-09	4.3362e-07	-4.3254e-07	-3.746e-11	1.126e-11	2.391e-11	4.3242e-07	-4.3242e-07
1.015	-3.598e-07	5.8689e-10	3.1262e-07	4.792e-07	-4.3256e-07	-1.8926e-07	3.7843e-10	1.6234e-07	4.5898e-07	-4.3262e-07	-9.80132e-08	2.329e-10	8.3543e-08	4.4696e-07	-4.3268e-07	-4.95306e-08	1.3107e-10	4.24534e-08	4.3956e-07	-4.3264e-07	-2.43984e-08	7.03e-11	2.12674e-08	4.3566e-07	-4.3254e-07	-1.13495e-08	2.845e-11	1.02733e-08	4.335e-07	-4.3242e-07	-4.183e-11	9.72e-12	3.195e-11	4.3244e-07	-4.3238e-07
1.01	-3.9498e-07	5.8047e-10	3.4756e-07	4.7914e-07	-4.3248e-07	-2.0788e-07	3.7103e-10	1.8122e-07	4.593e-07	-4.327e-07	-1.078932e-07	2.2826e-10	9.34988e-08	4.4684e-07	-4.3266e-07	-5.46994e-08	1.3024e-10	4.7637e-08	4.3958e-07	-4.3264e-07	-2.70468e-08	6.863e-11	2.39246e-08	4.3564e-07	-4.3254e-07	-1.266e-08	2.757e-11	1.15998e-08	4.3348e-07	-4.324e-07	-5.07e-11	1.145e-11	3.839e-11	4.3238e-07	-4.3234e-07
1.005	-4.3464e-07	5.6863e-10	3.8762e-07	4.7916e-07	-4.3252e-07	-2.2926e-07	3.6523e-10	2.0258e-07	4.5906e-07	-4.326e-07	-1.1922e-07	2.2346e-10	1.048586e-07	4.468e-07	-4.3254e-07	-6.06242e-08	1.243e-10	5.35744e-08	4.3948e-07	-4.326e-07	-3.00726e-08	6.425e-11	2.6967e-08	4.3562e-07	-4.3252e-07	-1.41536e-08	2.485e-11	1.3059e-08	4.3372e-07	-4.3264e-07	-6.168e-11	9.75e-12	4.728e-11	4.3236e-07	-4.324e-07
1	-4.7804e-07	5.6188e-10	4.3124e-07	4.792e-07	-4.3252e-07	-2.5302e-07	3.5959e-10	2.2594e-07	4.5898e-07	-4.3272e-07	-1.3174e-07	2.1937e-10	1.1752e-07	4.4686e-07	-4.327e-07	-6.71996e-08	1.2203e-10	6.01204e-08	4.3978e-07	-4.3282e-07	-3.34206e-08	6.442e-11	3.0312e-08	4.3572e-07	-4.327e-07	-1.57786e-08	2.584e-11	1.473e-08	4.3346e-07	-4.3242e-07	-6.709e-11	1.071e-11	4.983e-11	4.3242e-07	-4.3234e-07
0.995	-5.2818e-07	5.544e-10	4.8078e-07	4.7914e-07	-4.3248e-07	-2.7942e-07	3.5351e-10	2.5278e-07	4.593e-07	-4.33e-07	-1.461e-07	2.1486e-10	1.3164e-07	4.4686e-07	-4.3268e-07	-7.46728e-08	1.1985e-10	6.7588e-08	4.396e-07	-4.3252e-07	-3.72754e-08	6.01e-11	3.415e-08	4.358e-07	-4.3274e-07	-1.76828e-08	2.268e-11	1.6598e-08	4.3346e-07	-4.3244e-07	-6.522e-11	1.013e-11	6.038e-11	4.3238e-07	-4.3232e-07
0.99	-5.8226e-07	5.438e-10	5.3484e-07	4.7914e-07	-4.3242e-07	-3.0872e-07	3.4751e-10	2.8234e-07	4.59e-07	-4.3264e-07	-1.6188e-07	2.0894e-10	1.4738e-07	4.4698e-07	-4.3276e-07	-8.29228e-08	1.1763e-10	7.5872e-08	4.3968e-07	-4.3274e-07	-4.1555e-08	6.069e-11	3.84366e-08	4.3576e-07	-4.3272e-07	-1.97822e-08	2.379e-11	1.87128e-08	4.337e-07	-4.3258e-07	-9.43e-11	8.4e-12	6.553e-11	4.324e-07	-4.324e-07
0.985	-6.4424e-07	5.3816e-10	5.9708e-07	4.7912e-07	-4.3252e-07	-3.4212e-07	3.4131e-10	3.1572e-07	4.5892e-07	-4.3258e-07	-1.7978e-07	2.039e-10	1.6536e-07	4.4686e-07	-4.3268e-07	-9.23946e-08	1.1301e-10	8.53558e-08	4.3968e-07	-4.327e-07	-4.6441e-08	5.705e-11	4.3286e-08	4.3584e-07	-4.3274e-07	-2.22216e-08	2.039e-11	2.11406e-08	4.3374e-07	-4.3264e-07	-9.097e-11	7.21e-12	8.207e-11	4.324e-07	-4.3226e-07
0.98	-7.1126e-07	5.2737e-10	6.6502e-07	4.7908e-07	-4.3246e-07	-3.7952e-07	3.3413e-10	3.5222e-07	4.5902e-07	-4.3266e-07	-1.996e-07	2.002e-10	1.8516e-07	4.4674e-07	-4.326e-07	-1.02884e-07	1.1302e-10	9.58272e-08	4.395e-07	-4.3254e-07	-5.183e-08	5.602e-11	4.87326e-08	4.3586e-07	-4.3272e-07	-2.48964e-08	2.201e-11	2.38442e-08	4.3346e-07	-4.324e-07	-1.0576e-10	6.76e-12	9.053e-11	4.3232e-07	-4.3234e-07
0.975	-7.8874e-07	5.1584e-10	7.417e-07	4.792e-07	-4.3258e-07	-4.2076e-07	3.2615e-10	3.943e-07	4.589e-07	-4.326e-07	-2.2234e-07	1.9562e-10	2.078e-07	4.4686e-07	-4.3274e-07	-1.148944e-07	1.0761e-10	1.078602e-07	4.3952e-07	-4.3248e-07	-5.80278e-08	5.087e-11	5.49428e-08	4.3566e-07	-4.326e-07	-2.7976e-08	1.887e-11	2.6916e-08	4.3344e-07	-4.324e-07	-1.1351e-10	7.79e-12	1.0381e-10	4.3244e-07	-4.3238e-07
0.97	-8.7334e-07	5.0913e-10	8.2568e-07	4.7904e-07	-4.3252e-07	-4.6752e-07	3.2285e-10	4.4716e-07	4.5888e-07	-4.3266e-07	-2.471e-07	1.9227e-10	2.3286e-07	4.469e-07	-4.3276e-07	-1.2826e-07	1.0567e-10	1.213e-07	4.3954e-07	-4.3258e-07	-6.49134e-08	5.156e-11	6.17968e-08	4.3564e-07	-4.3254e-07	-3.1402e-08	1.928e-11	3.03584e-08	4.3374e-07	-4.3268e-07	-1.1939e-10	6.28e-12	1.1526e-10	4.3266e-07	-4.3258e-07
0.965	-9.6864e-07	5.0196e-10	9.218e-07	4.7892e-07	-4.3246e-07	-5.1998e-07	3.1638e-10	4.935e-07	4.59e-07	-4.326e-07	-2.758e-07	1.8811e-10	2.612e-07	4.4684e-07	-4.3274e-07	-1.4342e-07	1.0542e-10	1.3644e-07	4.3948e-07	-4.3254e-07	-7.27666e-08	4.713e-11	6.96766e-08	4.3562e-07	-4.3256e-07	-3.54168e-08	1.62e-11	3.43508e-08	4.3368e-07	-4.3264e-07	-1.3072e-10	6.24e-12	1.3654e-10	4.324e-07	-4.3236e-07
0.96	-1.0736e-06	4.9388e-10	1.0286e-06	4.7886e-07	-4.324e-07	-5.7832e-07	3.1147e-10	5.5176e-07	4.589e-07	-4.326e-07	-3.075e-07	1.8337e-10	2.9318e-07	4.4686e-07	-4.3264e-07	-1.5998e-07	1.0075e-10	1.5318e-07	4.3942e-07	-4.326e-07	-8.1512e-08	4.859e-11	7.84392e-08	4.3566e-07	-4.325e-07	-3.97496e-08	1.8e-11	3.87404e-08	4.3336e-07	-4.323e-07	-1.1803e-10	6.27e-12	1.4898e-10	4.324e-07	-4.3242e-07
