Vg	Id,Vd=0V	Ig,Vd=0V	Is,Vd=0V	Iavdd,Vd=0V	Ignd,Vd=0V	Id,Vd=0.15V	Ig,Vd=0.15V	Is,Vd=0.15V	Iavdd,Vd=0.15V	Ignd,Vd=0.15V	Id,Vd=0.3V	Ig,Vd=0.3V	Is,Vd=0.3V	Iavdd,Vd=0.3V	Ignd,Vd=0.3V	Id,Vd=0.45V	Ig,Vd=0.45V	Is,Vd=0.45V	Iavdd,Vd=0.45V	Ignd,Vd=0.45V	Id,Vd=0.6V	Ig,Vd=0.6V	Is,Vd=0.6V	Iavdd,Vd=0.6V	Ignd,Vd=0.6V	Id,Vd=0.75V	Ig,Vd=0.75V	Is,Vd=0.75V	Iavdd,Vd=0.75V	Ignd,Vd=0.75V	Id,Vd=0.9V	Ig,Vd=0.9V	Is,Vd=0.9V	Iavdd,Vd=0.9V	Ignd,Vd=0.9V
1.2000	-9.9572e-08	1.1968e-08	7.8210e-11	5.0898e-07	-4.2138e-07	-5.6718e-08	1.1173e-08	6.1660e-11	4.8356e-07	-4.3832e-07	-3.0786e-08	1.0112e-08	4.9290e-11	4.5962e-07	-4.3900e-07	-1.5556e-08	9.3034e-09	4.7900e-11	4.4442e-07	-4.3816e-07	-6.3971e-09	8.6604e-09	4.2850e-11	4.3504e-07	-4.3728e-07	-1.2467e-09	8.2200e-09	4.0230e-11	4.2930e-07	-4.3616e-07	1.9315e-09	7.9311e-09	3.2050e-11	4.2542e-07	-4.3528e-07
1.1950	-9.8955e-08	1.1188e-08	8.0060e-11	5.0936e-07	-4.2148e-07	-5.5970e-08	1.0257e-08	6.5390e-11	4.8354e-07	-4.3778e-07	-3.0584e-08	9.2097e-09	7.3230e-11	4.5956e-07	-4.3820e-07	-1.5503e-08	8.4652e-09	5.6980e-11	4.4484e-07	-4.3770e-07	-6.3342e-09	7.8609e-09	4.8660e-11	4.3542e-07	-4.3696e-07	-1.2401e-09	7.4439e-09	4.0300e-11	4.2986e-07	-4.3604e-07	1.9369e-09	7.1814e-09	3.4760e-11	4.2614e-07	-4.3530e-07
1.1900	-9.8296e-08	1.0505e-08	8.4030e-11	5.0942e-07	-4.2164e-07	-5.5650e-08	9.4993e-09	7.1400e-11	4.8290e-07	-4.3692e-07	-3.0451e-08	8.5040e-09	5.2590e-11	4.5958e-07	-4.3768e-07	-1.5449e-08	7.7637e-09	5.4930e-11	4.4494e-07	-4.3732e-07	-6.3220e-09	7.1692e-09	5.4750e-11	4.3584e-07	-4.3694e-07	-1.2154e-09	6.7766e-09	4.6330e-11	4.3048e-07	-4.3598e-07	1.9454e-09	6.5281e-09	4.0300e-11	4.2668e-07	-4.3526e-07
1.1850	-9.7622e-08	9.8716e-09	8.8900e-11	5.0954e-07	-4.2172e-07	-5.5363e-08	8.8310e-09	7.3030e-11	4.8278e-07	-4.3636e-07	-3.0360e-08	7.8490e-09	6.5740e-11	4.5970e-07	-4.3716e-07	-1.5419e-08	7.1172e-09	6.4760e-11	4.4508e-07	-4.3698e-07	-6.2904e-09	6.5490e-09	5.6420e-11	4.3626e-07	-4.3656e-07	-1.2106e-09	6.1589e-09	5.4720e-11	4.3090e-07	-4.3578e-07	1.9505e-09	5.9110e-09	4.6670e-11	4.2734e-07	-4.3522e-07
1.1800	-9.7001e-08	9.2814e-09	9.7100e-11	5.0936e-07	-4.2176e-07	-5.5091e-08	8.2311e-09	8.1480e-11	4.8268e-07	-4.3584e-07	-3.0264e-08	7.2639e-09	8.6300e-11	4.5972e-07	-4.3682e-07	-1.5361e-08	6.5469e-09	6.7080e-11	4.4558e-07	-4.3668e-07	-6.2673e-09	5.9941e-09	6.2320e-11	4.3662e-07	-4.3630e-07	-1.2009e-09	5.6081e-09	5.8830e-11	4.3108e-07	-4.3556e-07	1.9546e-09	5.3818e-09	4.5810e-11	4.2788e-07	-4.3526e-07
1.1750	-9.6325e-08	8.7562e-09	9.6410e-11	5.0958e-07	-4.2198e-07	-5.4882e-08	7.6754e-09	8.2810e-11	4.8250e-07	-4.3532e-07	-3.0157e-08	6.7379e-09	5.8350e-11	4.5986e-07	-4.3644e-07	-1.5336e-08	6.0222e-09	7.0510e-11	4.4562e-07	-4.3630e-07	-6.2545e-09	5.4841e-09	6.9040e-11	4.3694e-07	-4.3610e-07	-1.1890e-09	5.1115e-09	5.7950e-11	4.3156e-07	-4.3540e-07	1.9657e-09	4.8854e-09	5.3550e-11	4.2828e-07	-4.3536e-07
1.1700	-9.5793e-08	8.2786e-09	1.0731e-10	5.0972e-07	-4.2210e-07	-5.4546e-08	7.1880e-09	9.1640e-11	4.8214e-07	-4.3478e-07	-3.0068e-08	6.2535e-09	7.9820e-11	4.5992e-07	-4.3612e-07	-1.5284e-08	5.5519e-09	7.6340e-11	4.4588e-07	-4.3614e-07	-6.2364e-09	5.0202e-09	7.1320e-11	4.3718e-07	-4.3608e-07	-1.1815e-09	4.6642e-09	6.7720e-11	4.3190e-07	-4.3536e-07	1.9659e-09	4.4494e-09	5.7280e-11	4.2872e-07	-4.3524e-07
1.1650	-9.5368e-08	7.8464e-09	1.0964e-10	5.0968e-07	-4.2236e-07	-5.4338e-08	6.7408e-09	9.4310e-11	4.8206e-07	-4.3450e-07	-2.9968e-08	5.7996e-09	1.1247e-10	4.5998e-07	-4.3572e-07	-1.5238e-08	5.1222e-09	7.9780e-11	4.4602e-07	-4.3586e-07	-6.2225e-09	4.5996e-09	7.6960e-11	4.3752e-07	-4.3592e-07	-1.1798e-09	4.2486e-09	7.2790e-11	4.3214e-07	-4.3526e-07	1.9725e-09	4.0419e-09	5.6530e-11	4.2906e-07	-4.3512e-07
1.1600	-9.4761e-08	7.4514e-09	1.1611e-10	5.0968e-07	-4.2236e-07	-5.4176e-08	6.3303e-09	1.0237e-10	4.8188e-07	-4.3438e-07	-2.9869e-08	5.4227e-09	7.6580e-11	4.5984e-07	-4.3544e-07	-1.5223e-08	4.7358e-09	8.9500e-11	4.4620e-07	-4.3572e-07	-6.2068e-09	4.2251e-09	8.1730e-11	4.3770e-07	-4.3580e-07	-1.1573e-09	3.8884e-09	7.1200e-11	4.3274e-07	-4.3542e-07	1.9785e-09	3.6854e-09	6.1800e-11	4.2946e-07	-4.3512e-07
1.1550	-9.4356e-08	7.0828e-09	1.2284e-10	5.0962e-07	-4.2244e-07	-5.3878e-08	5.9599e-09	1.0680e-10	4.8170e-07	-4.3378e-07	-2.9797e-08	5.0550e-09	9.9530e-11	4.5996e-07	-4.3524e-07	-1.5154e-08	4.3913e-09	8.7390e-11	4.4626e-07	-4.3560e-07	-6.1841e-09	3.8845e-09	8.3740e-11	4.3792e-07	-4.3568e-07	-1.1511e-09	3.5495e-09	8.0530e-11	4.3292e-07	-4.3540e-07	1.9831e-09	3.3541e-09	6.6980e-11	4.2976e-07	-4.3512e-07
1.1500	-9.3926e-08	6.7474e-09	1.2965e-10	5.0956e-07	-4.2246e-07	-5.3715e-08	5.6318e-09	1.1240e-10	4.8162e-07	-4.3350e-07	-2.9758e-08	4.7332e-09	1.1323e-10	4.5998e-07	-4.3504e-07	-1.5097e-08	4.0498e-09	1.0291e-10	4.4640e-07	-4.3540e-07	-6.2005e-09	3.5780e-09	8.9850e-11	4.3816e-07	-4.3558e-07	-1.1441e-09	3.2537e-09	8.2400e-11	4.3326e-07	-4.3532e-07	1.9872e-09	3.0598e-09	7.2010e-11	4.3006e-07	-4.3504e-07
1.1450	-9.3350e-08	6.4379e-09	1.3759e-10	5.0946e-07	-4.2262e-07	-5.3674e-08	5.3131e-09	1.2281e-10	4.8140e-07	-4.3328e-07	-2.9674e-08	4.4354e-09	9.9170e-11	4.6008e-07	-4.3488e-07	-1.5122e-08	3.7779e-09	1.0016e-10	4.4656e-07	-4.3528e-07	-6.1642e-09	3.2910e-09	9.7430e-11	4.3830e-07	-4.3548e-07	-1.1414e-09	2.9778e-09	8.8230e-11	4.3336e-07	-4.3546e-07	1.9953e-09	2.7920e-09	6.9690e-11	4.3034e-07	-4.3512e-07
1.1400	-9.2881e-08	6.1610e-09	1.4545e-10	5.0936e-07	-4.2274e-07	-5.3450e-08	5.0322e-09	1.2334e-10	4.8140e-07	-4.3306e-07	-2.9587e-08	4.1632e-09	1.2405e-10	4.6000e-07	-4.3468e-07	-1.5059e-08	3.5200e-09	1.1130e-10	4.4684e-07	-4.3516e-07	-6.1620e-09	3.0396e-09	1.0079e-10	4.3840e-07	-4.3536e-07	-1.1363e-09	2.7281e-09	9.5390e-11	4.3358e-07	-4.3520e-07	2.0015e-09	2.5505e-09	8.0280e-11	4.3050e-07	-4.3516e-07
1.1350	-9.2235e-08	5.8968e-09	1.5298e-10	5.0904e-07	-4.2274e-07	-5.3282e-08	4.7794e-09	1.3842e-10	4.8120e-07	-4.3274e-07	-2.9596e-08	3.9195e-09	1.1198e-10	4.5996e-07	-4.3442e-07	-1.5032e-08	3.2775e-09	1.1511e-10	4.4670e-07	-4.3502e-07	-6.1010e-09	2.8089e-09	1.0522e-10	4.3852e-07	-4.3538e-07	-1.1201e-09	2.5060e-09	9.9820e-11	4.3378e-07	-4.3512e-07	1.9987e-09	2.3307e-09	7.9470e-11	4.3072e-07	-4.3512e-07
1.1300	-9.1784e-08	5.6620e-09	1.6468e-10	5.0870e-07	-4.2290e-07	-5.3154e-08	4.5441e-09	1.4495e-10	4.8100e-07	-4.3262e-07	-2.9341e-08	3.6910e-09	1.4340e-10	4.5980e-07	-4.3428e-07	-1.5006e-08	3.0626e-09	1.1868e-10	4.4674e-07	-4.3496e-07	-6.1091e-09	2.6051e-09	1.1529e-10	4.3862e-07	-4.3526e-07	-1.1223e-09	2.3072e-09	1.0271e-10	4.3390e-07	-4.3514e-07	2.0091e-09	2.1334e-09	8.2020e-11	4.3084e-07	-4.3508e-07
1.1250	-9.1324e-08	5.4434e-09	1.7564e-10	5.0872e-07	-4.2292e-07	-5.2964e-08	4.3362e-09	1.5405e-10	4.8086e-07	-4.3236e-07	-2.9303e-08	3.4898e-09	1.4113e-10	4.5990e-07	-4.3420e-07	-1.4998e-08	2.8588e-09	1.3403e-10	4.4662e-07	-4.3470e-07	-6.0879e-09	2.4104e-09	1.1825e-10	4.3882e-07	-4.3522e-07	-1.1069e-09	2.1202e-09	1.1010e-10	4.3410e-07	-4.3504e-07	2.0125e-09	1.9523e-09	8.9580e-11	4.3098e-07	-4.3518e-07
1.1200	-9.1197e-08	5.2424e-09	1.8451e-10	5.0878e-07	-4.2294e-07	-5.2801e-08	4.1371e-09	1.6116e-10	4.8070e-07	-4.3228e-07	-2.9265e-08	3.3069e-09	1.3637e-10	4.5990e-07	-4.3408e-07	-1.4882e-08	2.6860e-09	1.3414e-10	4.4682e-07	-4.3472e-07	-6.0793e-09	2.2390e-09	1.2361e-10	4.3888e-07	-4.3512e-07	-1.1043e-09	1.9571e-09	1.1738e-10	4.3414e-07	-4.3518e-07	2.0150e-09	1.7913e-09	9.0700e-11	4.3114e-07	-4.3504e-07
1.1150	-9.0710e-08	5.0525e-09	2.0343e-10	5.0846e-07	-4.2306e-07	-5.2593e-08	3.9560e-09	1.7871e-10	4.8052e-07	-4.3208e-07	-2.9234e-08	3.1277e-09	1.7735e-10	4.5960e-07	-4.3384e-07	-1.4849e-08	2.5198e-09	1.4694e-10	4.4688e-07	-4.3462e-07	-6.0618e-09	2.0824e-09	1.3593e-10	4.3890e-07	-4.3498e-07	-1.0960e-09	1.8042e-09	1.1984e-10	4.3432e-07	-4.3516e-07	2.0178e-09	1.6441e-09	9.0350e-11	4.3132e-07	-4.3498e-07
1.1100	-9.0249e-08	4.8890e-09	2.1595e-10	5.0836e-07	-4.2308e-07	-5.2506e-08	3.7926e-09	1.8816e-10	4.8046e-07	-4.3186e-07	-2.9176e-08	2.9790e-09	1.5605e-10	4.5968e-07	-4.3374e-07	-1.4867e-08	2.3723e-09	1.5699e-10	4.4686e-07	-4.3448e-07	-6.0495e-09	1.9389e-09	1.4311e-10	4.3894e-07	-4.3526e-07	-1.0932e-09	1.6687e-09	1.3356e-10	4.3440e-07	-4.3504e-07	2.0245e-09	1.5118e-09	9.6320e-11	4.3136e-07	-4.3490e-07
1.1050	-8.9943e-08	4.7255e-09	2.3471e-10	5.0828e-07	-4.2314e-07	-5.2343e-08	3.6380e-09	2.0607e-10	4.8034e-07	-4.3184e-07	-2.9098e-08	2.8323e-09	1.8746e-10	4.5972e-07	-4.3354e-07	-1.4826e-08	2.2375e-09	1.6702e-10	4.4688e-07	-4.3454e-07	-6.0364e-09	1.8111e-09	1.5192e-10	4.3906e-07	-4.3494e-07	-1.0954e-09	1.5429e-09	1.3973e-10	4.3448e-07	-4.3500e-07	2.0250e-09	1.3926e-09	1.0041e-10	4.3154e-07	-4.3492e-07
1.1000	-8.9549e-08	4.5766e-09	2.5464e-10	5.0798e-07	-4.2332e-07	-5.2225e-08	3.4996e-09	2.2466e-10	4.8022e-07	-4.3164e-07	-2.9199e-08	2.6993e-09	2.0619e-10	4.5980e-07	-4.3346e-07	-1.4788e-08	2.1118e-09	1.8012e-10	4.4702e-07	-4.3434e-07	-6.0366e-09	1.6937e-09	1.6268e-10	4.3900e-07	-4.3492e-07	-1.0915e-09	1.4311e-09	1.4860e-10	4.3454e-07	-4.3496e-07	2.0287e-09	1.2802e-09	9.8300e-11	4.3160e-07	-4.3490e-07
1.0950	-8.9176e-08	4.4407e-09	2.7703e-10	5.0778e-07	-4.2328e-07	-5.2163e-08	3.3715e-09	2.4353e-10	4.8006e-07	-4.3160e-07	-2.9048e-08	2.5833e-09	2.0734e-10	4.5960e-07	-4.3336e-07	-1.4794e-08	1.9977e-09	1.8892e-10	4.4700e-07	-4.3432e-07	-6.0207e-09	1.5840e-09	1.8138e-10	4.3918e-07	-4.3488e-07	-1.0893e-09	1.3313e-09	1.5721e-10	4.3472e-07	-4.3502e-07	2.0357e-09	1.1853e-09	1.0539e-10	4.3186e-07	-4.3512e-07
1.0900	-8.9000e-08	4.3083e-09	3.0357e-10	5.0772e-07	-4.2332e-07	-5.2070e-08	3.2461e-09	2.6731e-10	4.8000e-07	-4.3128e-07	-2.9003e-08	2.4679e-09	2.4631e-10	4.5962e-07	-4.3328e-07	-1.4730e-08	1.8921e-09	2.1412e-10	4.4692e-07	-4.3420e-07	-6.0183e-09	1.4868e-09	1.8825e-10	4.3918e-07	-4.3478e-07	-1.0897e-09	1.2344e-09	1.7351e-10	4.3458e-07	-4.3494e-07	2.0350e-09	1.0935e-09	1.0915e-10	4.3170e-07	-4.3482e-07
1.0850	-8.8585e-08	4.1904e-09	3.3462e-10	5.0750e-07	-4.2328e-07	-5.1928e-08	3.1466e-09	2.8310e-10	4.7986e-07	-4.3124e-07	-2.8972e-08	2.3737e-09	2.4128e-10	4.5956e-07	-4.3322e-07	-1.4763e-08	1.7975e-09	2.2466e-10	4.4698e-07	-4.3420e-07	-6.0033e-09	1.3937e-09	2.0417e-10	4.3908e-07	-4.3480e-07	-1.0962e-09	1.1541e-09	1.8067e-10	4.3468e-07	-4.3492e-07	2.0398e-09	1.0129e-09	1.1170e-10	4.3184e-07	-4.3486e-07
1.0800	-8.8449e-08	4.0794e-09	3.6662e-10	5.0750e-07	-4.2348e-07	-5.1891e-08	3.0400e-09	3.2199e-10	4.7988e-07	-4.3114e-07	-2.8954e-08	2.2720e-09	2.9215e-10	4.5960e-07	-4.3310e-07	-1.4764e-08	1.7136e-09	2.4818e-10	4.4688e-07	-4.3414e-07	-6.0181e-09	1.3174e-09	2.1757e-10	4.3930e-07	-4.3474e-07	-1.0895e-09	1.0759e-09	1.9587e-10	4.3480e-07	-4.3480e-07	2.0395e-09	9.4119e-10	1.1583e-10	4.3186e-07	-4.3492e-07
1.0750	-8.8060e-08	3.9732e-09	4.0826e-10	5.0726e-07	-4.2348e-07	-5.1853e-08	2.9383e-09	3.5482e-10	4.7978e-07	-4.3116e-07	-2.8974e-08	2.1891e-09	3.0541e-10	4.5960e-07	-4.3302e-07	-1.4743e-08	1.6314e-09	2.7400e-10	4.4692e-07	-4.3402e-07	-6.0098e-09	1.2444e-09	2.3376e-10	4.3924e-07	-4.3470e-07	-1.1034e-09	1.0054e-09	2.1673e-10	4.3476e-07	-4.3504e-07	2.0456e-09	8.7247e-10	1.1717e-10	4.3186e-07	-4.3492e-07
1.0700	-8.7803e-08	3.8767e-09	4.5391e-10	5.0716e-07	-4.2356e-07	-5.1759e-08	2.8599e-09	3.8558e-10	4.7952e-07	-4.3102e-07	-2.8913e-08	2.1101e-09	3.3391e-10	4.5948e-07	-4.3298e-07	-1.4740e-08	1.5584e-09	2.9274e-10	4.4686e-07	-4.3402e-07	-6.0356e-09	1.1738e-09	2.6718e-10	4.3926e-07	-4.3466e-07	-1.1221e-09	9.4441e-10	2.3308e-10	4.3480e-07	-4.3480e-07	2.0441e-09	8.1033e-10	1.2694e-10	4.3204e-07	-4.3516e-07
1.0650	-8.7574e-08	3.7856e-09	5.0354e-10	5.0694e-07	-4.2354e-07	-5.1587e-08	2.7633e-09	4.3839e-10	4.7932e-07	-4.3090e-07	-2.8858e-08	2.0276e-09	3.9163e-10	4.5934e-07	-4.3280e-07	-1.4745e-08	1.4872e-09	3.3003e-10	4.4688e-07	-4.3388e-07	-6.0443e-09	1.1105e-09	2.8734e-10	4.3934e-07	-4.3458e-07	-1.1228e-09	8.8471e-10	2.5121e-10	4.3488e-07	-4.3478e-07	2.0422e-09	7.5940e-10	1.2223e-10	4.3206e-07	-4.3490e-07
1.0600	-8.7564e-08	3.6983e-09	5.6949e-10	5.0690e-07	-4.2360e-07	-5.1604e-08	2.6944e-09	4.8861e-10	4.7936e-07	-4.3086e-07	-2.8896e-08	1.9676e-09	4.0404e-10	4.5944e-07	-4.3286e-07	-1.4756e-08	1.4243e-09	3.5736e-10	4.4692e-07	-4.3386e-07	-6.0524e-09	1.0564e-09	3.1055e-10	4.3930e-07	-4.3450e-07	-1.1376e-09	8.3505e-10	2.7221e-10	4.3492e-07	-4.3482e-07	2.0507e-09	7.0614e-10	1.3044e-10	4.3208e-07	-4.3486e-07
1.0550	-8.7343e-08	3.5978e-09	6.3824e-10	5.0688e-07	-4.2374e-07	-5.1552e-08	2.6187e-09	5.4275e-10	4.7930e-07	-4.3092e-07	-2.8926e-08	1.8931e-09	4.8541e-10	4.5938e-07	-4.3282e-07	-1.4784e-08	1.3646e-09	4.0652e-10	4.4696e-07	-4.3384e-07	-6.0709e-09	1.0028e-09	3.4722e-10	4.3924e-07	-4.3454e-07	-1.1573e-09	7.8359e-10	3.0294e-10	4.3490e-07	-4.3478e-07	2.0468e-09	6.6417e-10	1.3730e-10	4.3238e-07	-4.3504e-07
1.0500	-8.7141e-08	3.5337e-09	7.2072e-10	5.0674e-07	-4.2370e-07	-5.1526e-08	2.5439e-09	6.1658e-10	4.7910e-07	-4.3068e-07	-2.9056e-08	1.8392e-09	5.1206e-10	4.5920e-07	-4.3254e-07	-1.4823e-08	1.3100e-09	4.4811e-10	4.4688e-07	-4.3376e-07	-6.0799e-09	9.5726e-10	3.7821e-10	4.3932e-07	-4.3448e-07	-1.1832e-09	7.3980e-10	3.3494e-10	4.3492e-07	-4.3474e-07	2.0446e-09	6.2059e-10	1.3617e-10	4.3214e-07	-4.3494e-07
1.0450	-8.6861e-08	3.4597e-09	8.1510e-10	5.0646e-07	-4.2382e-07	-5.1440e-08	2.4868e-09	6.9072e-10	4.7896e-07	-4.3068e-07	-2.9004e-08	1.7802e-09	5.9251e-10	4.5914e-07	-4.3258e-07	-1.4800e-08	1.2605e-09	5.0159e-10	4.4698e-07	-4.3374e-07	-6.1089e-09	9.1385e-10	4.2676e-10	4.3928e-07	-4.3448e-07	-1.2048e-09	7.0131e-10	3.6365e-10	4.3496e-07	-4.3468e-07	2.0455e-09	5.8226e-10	1.4453e-10	4.3216e-07	-4.3496e-07
1.0400	-8.6769e-08	3.3891e-09	9.2587e-10	5.0640e-07	-4.2392e-07	-5.1626e-08	2.4251e-09	7.8660e-10	4.7902e-07	-4.3050e-07	-2.9061e-08	1.7270e-09	6.6717e-10	4.5912e-07	-4.3232e-07	-1.4825e-08	1.2119e-09	5.6972e-10	4.4686e-07	-4.3372e-07	-6.1703e-09	8.7012e-10	4.7929e-10	4.3924e-07	-4.3438e-07	-1.2393e-09	6.6299e-10	4.1006e-10	4.3492e-07	-4.3474e-07	2.0486e-09	5.4953e-10	1.4972e-10	4.3214e-07	-4.3484e-07
1.0350	-8.6690e-08	3.3222e-09	1.0509e-09	5.0630e-07	-4.2388e-07	-5.1581e-08	2.3655e-09	8.9389e-10	4.7880e-07	-4.3048e-07	-2.9105e-08	1.6777e-09	7.4376e-10	4.5888e-07	-4.3218e-07	-1.4877e-08	1.1705e-09	6.3362e-10	4.4686e-07	-4.3376e-07	-6.2006e-09	8.3428e-10	5.3712e-10	4.3926e-07	-4.3444e-07	-1.2900e-09	6.2787e-10	4.5590e-10	4.3500e-07	-4.3478e-07	2.0436e-09	5.1696e-10	1.5785e-10	4.3228e-07	-4.3496e-07
1.0300	-8.6652e-08	3.2587e-09	1.1978e-09	5.0628e-07	-4.2390e-07	-5.1490e-08	2.3153e-09	1.0121e-09	4.7868e-07	-4.3044e-07	-2.9073e-08	1.6270e-09	8.6992e-10	4.5898e-07	-4.3222e-07	-1.4933e-08	1.1314e-09	7.1942e-10	4.4680e-07	-4.3364e-07	-6.2655e-09	7.9126e-10	6.1662e-10	4.3914e-07	-4.3436e-07	-1.3340e-09	5.9863e-10	5.0899e-10	4.3490e-07	-4.3468e-07	2.0410e-09	4.8996e-10	1.6163e-10	4.3226e-07	-4.3486e-07
1.0250	-8.6746e-08	3.1979e-09	1.3728e-09	5.0618e-07	-4.2394e-07	-5.1525e-08	2.2569e-09	1.1542e-09	4.7850e-07	-4.3036e-07	-2.9203e-08	1.5862e-09	9.5949e-10	4.5884e-07	-4.3214e-07	-1.5008e-08	1.0911e-09	8.1640e-10	4.4686e-07	-4.3364e-07	-6.3218e-09	7.6235e-10	6.8267e-10	4.3916e-07	-4.3402e-07	-1.3861e-09	5.7245e-10	5.7478e-10	4.3500e-07	-4.3474e-07	2.0407e-09	4.6342e-10	1.7311e-10	4.3228e-07	-4.3484e-07
1.0200	-8.6722e-08	3.1355e-09	1.5672e-09	5.0592e-07	-4.2402e-07	-5.1596e-08	2.2124e-09	1.3207e-09	4.7838e-07	-4.3040e-07	-2.9287e-08	1.5406e-09	1.1213e-09	4.5886e-07	-4.3216e-07	-1.5131e-08	1.0560e-09	9.2544e-10	4.4668e-07	-4.3350e-07	-6.3974e-09	7.3925e-10	7.6041e-10	4.3912e-07	-4.3420e-07	-1.4525e-09	5.4398e-10	6.4795e-10	4.3490e-07	-4.3462e-07	2.0321e-09	4.4003e-10	1.8218e-10	4.3224e-07	-4.3490e-07
1.0150	-8.6704e-08	3.0807e-09	1.7960e-09	5.0588e-07	-4.2406e-07	-5.1619e-08	2.1602e-09	1.5254e-09	4.7836e-07	-4.3032e-07	-2.9396e-08	1.5044e-09	1.2622e-09	4.5864e-07	-4.3208e-07	-1.5286e-08	1.0214e-09	1.0625e-09	4.4672e-07	-4.3358e-07	-6.4680e-09	7.0956e-10	8.7541e-10	4.3924e-07	-4.3422e-07	-1.5407e-09	5.2114e-10	7.3410e-10	4.3492e-07	-4.3456e-07	2.0302e-09	4.2102e-10	1.8836e-10	4.3224e-07	-4.3496e-07
1.0100	-8.6856e-08	3.0283e-09	2.0687e-09	5.0592e-07	-4.2410e-07	-5.1798e-08	2.1275e-09	1.7371e-09	4.7834e-07	-4.3026e-07	-2.9575e-08	1.4653e-09	1.4615e-09	4.5878e-07	-4.3206e-07	-1.5426e-08	9.9041e-10	1.2057e-09	4.4674e-07	-4.3348e-07	-6.5951e-09	6.8153e-10	1.0117e-09	4.3924e-07	-4.3426e-07	-1.6250e-09	5.0082e-10	8.3181e-10	4.3502e-07	-4.3464e-07	2.0213e-09	3.9935e-10	2.0271e-10	4.3240e-07	-4.3486e-07
1.0050	-8.6896e-08	2.9739e-09	2.3900e-09	5.0576e-07	-4.2412e-07	-5.1968e-08	2.0736e-09	1.9970e-09	4.7814e-07	-4.3018e-07	-2.9765e-08	1.4290e-09	1.6668e-09	4.5890e-07	-4.3196e-07	-1.5577e-08	9.6397e-10	1.3786e-09	4.4668e-07	-4.3336e-07	-6.7253e-09	6.5935e-10	1.1385e-09	4.3914e-07	-4.3410e-07	-1.7383e-09	4.7954e-10	9.5056e-10	4.3496e-07	-4.3462e-07	2.0093e-09	3.8118e-10	2.1620e-10	4.3240e-07	-4.3484e-07
1.0000	-8.7122e-08	2.9225e-09	2.7585e-09	5.0562e-07	-4.2418e-07	-5.2314e-08	2.0357e-09	2.3033e-09	4.7832e-07	-4.3042e-07	-2.9937e-08	1.3957e-09	1.9103e-09	4.5872e-07	-4.3194e-07	-1.5747e-08	9.3221e-10	1.5920e-09	4.4670e-07	-4.3340e-07	-6.8816e-09	6.3296e-10	1.3054e-09	4.3906e-07	-4.3420e-07	-1.8617e-09	4.5967e-10	1.0789e-09	4.3500e-07	-4.3460e-07	2.0036e-09	3.6737e-10	2.2804e-10	4.3230e-07	-4.3492e-07
0.99500	-8.7322e-08	2.8728e-09	3.1732e-09	5.0542e-07	-4.2424e-07	-5.2554e-08	2.0043e-09	2.6565e-09	4.7814e-07	-4.3026e-07	-3.0230e-08	1.3604e-09	2.2133e-09	4.5870e-07	-4.3188e-07	-1.5990e-08	9.1325e-10	1.8273e-09	4.4676e-07	-4.3336e-07	-7.0819e-09	6.2079e-10	1.4994e-09	4.3912e-07	-4.3410e-07	-2.0012e-09	4.4482e-10	1.2335e-09	4.3494e-07	-4.3464e-07	1.9881e-09	3.4919e-10	2.4501e-10	4.3226e-07	-4.3486e-07
0.99000	-8.7647e-08	2.8285e-09	3.6682e-09	5.0548e-07	-4.2416e-07	-5.2837e-08	1.9533e-09	3.0540e-09	4.7814e-07	-4.3012e-07	-3.0498e-08	1.3319e-09	2.5312e-09	4.5856e-07	-4.3188e-07	-1.6223e-08	8.8762e-10	2.1002e-09	4.4664e-07	-4.3334e-07	-7.2930e-09	5.9429e-10	1.7285e-09	4.3912e-07	-4.3406e-07	-2.1816e-09	4.2825e-10	1.4144e-09	4.3504e-07	-4.3462e-07	1.9732e-09	3.3624e-10	2.7071e-10	4.3228e-07	-4.3488e-07
0.98500	-8.8123e-08	2.7857e-09	4.2275e-09	5.0534e-07	-4.2430e-07	-5.3247e-08	1.9232e-09	3.5291e-09	4.7788e-07	-4.3012e-07	-3.0837e-08	1.2961e-09	2.9577e-09	4.5864e-07	-4.3188e-07	-1.6519e-08	8.6207e-10	2.4221e-09	4.4662e-07	-4.3334e-07	-7.5606e-09	5.6846e-10	1.9994e-09	4.3908e-07	-4.3414e-07	-2.3809e-09	4.0991e-10	1.6208e-09	4.3500e-07	-4.3468e-07	1.9518e-09	3.2154e-10	2.8902e-10	4.3232e-07	-4.3488e-07
0.98000	-8.8503e-08	2.7396e-09	4.8965e-09	5.0536e-07	-4.2440e-07	-5.3677e-08	1.8918e-09	4.0777e-09	4.7774e-07	-4.2996e-07	-3.1272e-08	1.2723e-09	3.3811e-09	4.5860e-07	-4.3188e-07	-1.6852e-08	8.3977e-10	2.8042e-09	4.4662e-07	-4.3334e-07	-7.8618e-09	5.5258e-10	2.2892e-09	4.3910e-07	-4.3406e-07	-2.6346e-09	3.9788e-10	1.8641e-09	4.3504e-07	-4.3462e-07	1.9252e-09	3.1208e-10	3.1600e-10	4.3234e-07	-4.3492e-07
0.97500	-8.9163e-08	2.6945e-09	5.6976e-09	5.0522e-07	-4.2436e-07	-5.4386e-08	1.8495e-09	4.7472e-09	4.7774e-07	-4.2996e-07	-3.1729e-08	1.2430e-09	3.9368e-09	4.5852e-07	-4.3188e-07	-1.7290e-08	8.1679e-10	3.2308e-09	4.4668e-07	-4.3336e-07	-8.1899e-09	5.3820e-10	2.6328e-09	4.3906e-07	-4.3406e-07	-2.9075e-09	3.8463e-10	2.1461e-09	4.3500e-07	-4.3462e-07	1.9026e-09	2.9931e-10	3.4148e-10	4.3236e-07	-4.3496e-07
0.97000	-8.9872e-08	2.6541e-09	6.5975e-09	5.0520e-07	-4.2448e-07	-5.5152e-08	1.8199e-09	5.4812e-09	4.7788e-07	-4.3002e-07	-3.2384e-08	1.2194e-09	4.5281e-09	4.5852e-07	-4.3182e-07	-1.7669e-08	7.9819e-10	3.7186e-09	4.4640e-07	-4.3322e-07	-8.5736e-09	5.3123e-10	3.0317e-09	4.3916e-07	-4.3412e-07	-3.2267e-09	3.7237e-10	2.4754e-09	4.3504e-07	-4.3456e-07	1.8689e-09	2.8984e-10	3.7602e-10	4.3238e-07	-4.3486e-07
0.96500	-9.0826e-08	2.6100e-09	7.6603e-09	5.0494e-07	-4.2436e-07	-5.5904e-08	1.7861e-09	6.3966e-09	4.7778e-07	-4.3004e-07	-3.3020e-08	1.1908e-09	5.2768e-09	4.5846e-07	-4.3182e-07	-1.8244e-08	7.7667e-10	4.3189e-09	4.4656e-07	-4.3328e-07	-9.0712e-09	5.1359e-10	3.5274e-09	4.3936e-07	-4.3394e-07	-3.5973e-09	3.6199e-10	2.8593e-09	4.3498e-07	-4.3460e-07	1.8327e-09	2.8327e-10	4.1898e-10	4.3236e-07	-4.3480e-07
