Vg	Id,Vd=0V	Ig,Vd=0V	Is,Vd=0V	Iavdd,Vd=0V	Ignd,Vd=0V	Id,Vd=0.15V	Ig,Vd=0.15V	Is,Vd=0.15V	Iavdd,Vd=0.15V	Ignd,Vd=0.15V	Id,Vd=0.3V	Ig,Vd=0.3V	Is,Vd=0.3V	Iavdd,Vd=0.3V	Ignd,Vd=0.3V	Id,Vd=0.45V	Ig,Vd=0.45V	Is,Vd=0.45V	Iavdd,Vd=0.45V	Ignd,Vd=0.45V	Id,Vd=0.6V	Ig,Vd=0.6V	Is,Vd=0.6V	Iavdd,Vd=0.6V	Ignd,Vd=0.6V	Id,Vd=0.75V	Ig,Vd=0.75V	Is,Vd=0.75V	Iavdd,Vd=0.75V	Ignd,Vd=0.75V	Id,Vd=0.9V	Ig,Vd=0.9V	Is,Vd=0.9V	Iavdd,Vd=0.9V	Ignd,Vd=0.9V
-0.3	2.4608e-10	-5.3464e-10	2.6769e-10	3.3548e-07	-3.3534e-07	8.9875e-10	-9.5235e-10	2.6268e-10	3.3474e-07	-3.3484e-07	2.012e-09	-1.6648e-09	2.6721e-10	3.347e-07	-3.353e-07	3.907e-09	-2.7414e-09	2.5982e-10	3.349e-07	-3.362e-07	6.9129e-09	-4.2443e-09	2.6458e-10	3.3492e-07	-3.3784e-07	1.1543e-08	-6.2348e-09	2.6185e-10	3.352e-07	-3.4064e-07	1.82642e-08	-8.7801e-09	2.6292e-10	3.3526e-07	-3.4494e-07
-0.295	2.4897e-10	-5.0788e-10	2.5305e-10	3.3526e-07	-3.3532e-07	8.7517e-10	-9.1994e-10	2.5287e-10	3.3468e-07	-3.3488e-07	1.9735e-09	-1.6257e-09	2.5339e-10	3.3472e-07	-3.353e-07	3.8308e-09	-2.6846e-09	2.516e-10	3.3478e-07	-3.3614e-07	6.8263e-09	-4.1698e-09	2.5251e-10	3.3518e-07	-3.3804e-07	1.14208e-08	-6.1435e-09	2.5343e-10	3.3508e-07	-3.4054e-07	1.81326e-08	-8.6663e-09	2.5207e-10	3.352e-07	-3.4488e-07
-0.29	2.2322e-10	-4.9049e-10	2.4569e-10	3.3532e-07	-3.3528e-07	8.5536e-10	-8.8964e-10	2.4164e-10	3.347e-07	-3.3484e-07	1.9413e-09	-1.5791e-09	2.4412e-10	3.347e-07	-3.3526e-07	3.7995e-09	-2.6278e-09	2.3858e-10	3.3472e-07	-3.3614e-07	6.7655e-09	-4.0996e-09	2.4175e-10	3.3514e-07	-3.38e-07	1.13452e-08	-6.0498e-09	2.4501e-10	3.3512e-07	-3.4052e-07	1.80436e-08	-8.5561e-09	2.3995e-10	3.3512e-07	-3.4484e-07
-0.285	2.3077e-10	-4.6571e-10	2.3109e-10	3.3538e-07	-3.3528e-07	8.3918e-10	-8.6057e-10	2.3477e-10	3.3462e-07	-3.3476e-07	1.9117e-09	-1.5411e-09	2.3043e-10	3.3466e-07	-3.353e-07	3.7413e-09	-2.5771e-09	2.3136e-10	3.3468e-07	-3.361e-07	6.7108e-09	-4.031e-09	2.3119e-10	3.3512e-07	-3.38e-07	1.12266e-08	-5.9628e-09	2.3293e-10	3.3508e-07	-3.4056e-07	1.79372e-08	-8.4493e-09	2.3754e-10	3.3516e-07	-3.448e-07
-0.28	2.0845e-10	-4.5068e-10	2.2106e-10	3.3536e-07	-3.3532e-07	8.1626e-10	-8.3222e-10	2.2677e-10	3.3464e-07	-3.3478e-07	1.8756e-09	-1.5012e-09	2.231e-10	3.3476e-07	-3.3522e-07	3.7108e-09	-2.5196e-09	2.2179e-10	3.347e-07	-3.3604e-07	6.6463e-09	-3.9615e-09	2.2285e-10	3.3514e-07	-3.38e-07	1.11618e-08	-5.8755e-09	2.2762e-10	3.3504e-07	-3.4048e-07	1.78034e-08	-8.3404e-09	2.2469e-10	3.3522e-07	-3.4486e-07
-0.275	2.0066e-10	-4.2666e-10	2.1422e-10	3.3544e-07	-3.3536e-07	8.0309e-10	-8.0432e-10	2.169e-10	3.3466e-07	-3.3488e-07	1.8556e-09	-1.4619e-09	2.1116e-10	3.3466e-07	-3.352e-07	3.662e-09	-2.4734e-09	2.1495e-10	3.347e-07	-3.3606e-07	6.5727e-09	-3.8947e-09	2.1543e-10	3.3504e-07	-3.3794e-07	1.10772e-08	-5.7917e-09	2.1918e-10	3.3496e-07	-3.4038e-07	1.76786e-08	-8.2315e-09	2.1766e-10	3.354e-07	-3.45e-07
-0.27	1.9442e-10	-4.1175e-10	2.0282e-10	3.3532e-07	-3.353e-07	7.783e-10	-7.7876e-10	2.0981e-10	3.346e-07	-3.3478e-07	1.8144e-09	-1.4269e-09	2.0568e-10	3.3474e-07	-3.3542e-07	3.6259e-09	-2.4172e-09	2.0808e-10	3.3468e-07	-3.3612e-07	6.5326e-09	-3.8259e-09	2.0573e-10	3.3502e-07	-3.3788e-07	1.10184e-08	-5.7039e-09	2.0597e-10	3.3488e-07	-3.4036e-07	1.76084e-08	-8.1347e-09	2.0911e-10	3.3518e-07	-3.4496e-07
-0.265	1.8122e-10	-3.9367e-10	1.9807e-10	3.3532e-07	-3.3528e-07	7.6835e-10	-7.5086e-10	1.9945e-10	3.3464e-07	-3.348e-07	1.8008e-09	-1.3872e-09	1.9779e-10	3.347e-07	-3.3526e-07	3.5844e-09	-2.3716e-09	2.0012e-10	3.3472e-07	-3.3608e-07	6.4707e-09	-3.7614e-09	2.0019e-10	3.352e-07	-3.3794e-07	1.0912e-08	-5.621e-09	1.9612e-10	3.3498e-07	-3.4038e-07	1.74912e-08	-8.0246e-09	1.998e-10	3.3524e-07	-3.4486e-07
-0.26	1.8975e-10	-3.7512e-10	1.8741e-10	3.3532e-07	-3.3526e-07	7.4218e-10	-7.2778e-10	1.8996e-10	3.3458e-07	-3.3478e-07	1.7593e-09	-1.3548e-09	1.9091e-10	3.3464e-07	-3.3526e-07	3.5367e-09	-2.319e-09	1.9601e-10	3.347e-07	-3.3608e-07	6.4179e-09	-3.6962e-09	1.9083e-10	3.35e-07	-3.3776e-07	1.08556e-08	-5.5429e-09	1.8892e-10	3.3492e-07	-3.4032e-07	1.73744e-08	-7.9234e-09	1.8664e-10	3.3526e-07	-3.4488e-07
-0.255	1.6207e-10	-3.6237e-10	1.8254e-10	3.353e-07	-3.3526e-07	7.3418e-10	-7.0012e-10	1.7839e-10	3.3452e-07	-3.3488e-07	1.7449e-09	-1.3156e-09	1.8323e-10	3.3458e-07	-3.3518e-07	3.5048e-09	-2.2715e-09	1.8417e-10	3.347e-07	-3.3608e-07	6.3521e-09	-3.6321e-09	1.8372e-10	3.3504e-07	-3.3788e-07	1.07762e-08	-5.4565e-09	1.8095e-10	3.3498e-07	-3.4042e-07	1.73022e-08	-7.8188e-09	1.7705e-10	3.3518e-07	-3.4478e-07
-0.25	1.6918e-10	-3.4185e-10	1.7368e-10	3.3524e-07	-3.352e-07	7.1458e-10	-6.7869e-10	1.7044e-10	3.3472e-07	-3.3488e-07	1.716e-09	-1.2855e-09	1.7568e-10	3.347e-07	-3.3512e-07	3.4581e-09	-2.2239e-09	1.7895e-10	3.346e-07	-3.3602e-07	6.2945e-09	-3.567e-09	1.7679e-10	3.3512e-07	-3.3796e-07	1.06884e-08	-5.3784e-09	1.7178e-10	3.349e-07	-3.4034e-07	1.71822e-08	-7.7234e-09	1.7246e-10	3.3484e-07	-3.444e-07
-0.245	1.5062e-10	-3.322e-10	1.6433e-10	3.3526e-07	-3.3526e-07	7.0017e-10	-6.5242e-10	1.6207e-10	3.347e-07	-3.349e-07	1.6933e-09	-1.2472e-09	1.7058e-10	3.3456e-07	-3.352e-07	3.4304e-09	-2.1728e-09	1.674e-10	3.3464e-07	-3.3604e-07	6.2473e-09	-3.5066e-09	1.6783e-10	3.3472e-07	-3.3754e-07	1.0618e-08	-5.297e-09	1.6809e-10	3.3494e-07	-3.4032e-07	1.70622e-08	-7.6173e-09	1.6547e-10	3.3526e-07	-3.4494e-07
-0.24	1.4715e-10	-3.1279e-10	1.58e-10	3.3524e-07	-3.352e-07	6.8696e-10	-6.3127e-10	1.5497e-10	3.346e-07	-3.3476e-07	1.6666e-09	-1.216e-09	1.5986e-10	3.3464e-07	-3.3514e-07	3.3747e-09	-2.1306e-09	1.6038e-10	3.3464e-07	-3.3604e-07	6.2027e-09	-3.4446e-09	1.6084e-10	3.3472e-07	-3.3762e-07	1.05726e-08	-5.2212e-09	1.6078e-10	3.3486e-07	-3.4026e-07	1.69536e-08	-7.5254e-09	1.5874e-10	3.3526e-07	-3.448e-07
-0.235	1.4281e-10	-3.0031e-10	1.4663e-10	3.353e-07	-3.353e-07	6.6474e-10	-6.0865e-10	1.5214e-10	3.3466e-07	-3.348e-07	1.6397e-09	-1.1821e-09	1.5484e-10	3.3466e-07	-3.3518e-07	3.353e-09	-2.0822e-09	1.5009e-10	3.3464e-07	-3.3602e-07	6.1494e-09	-3.3838e-09	1.5015e-10	3.3478e-07	-3.3768e-07	1.04818e-08	-5.1391e-09	1.5125e-10	3.3488e-07	-3.4024e-07	1.6857e-08	-7.427e-09	1.5169e-10	3.3512e-07	-3.4486e-07
-0.23	1.2477e-10	-2.8645e-10	1.4111e-10	3.3522e-07	-3.3526e-07	6.5936e-10	-5.8603e-10	1.4421e-10	3.3466e-07	-3.3482e-07	1.6183e-09	-1.1485e-09	1.4614e-10	3.3466e-07	-3.352e-07	3.3045e-09	-2.0426e-09	1.415e-10	3.3474e-07	-3.3608e-07	6.0735e-09	-3.326e-09	1.4396e-10	3.347e-07	-3.377e-07	1.03918e-08	-5.0667e-09	1.4116e-10	3.3464e-07	-3.4024e-07	1.679e-08	-7.3282e-09	1.4789e-10	3.3496e-07	-3.4464e-07
-0.225	1.3517e-10	-2.7055e-10	1.3099e-10	3.3536e-07	-3.352e-07	6.3137e-10	-5.6738e-10	1.3964e-10	3.3462e-07	-3.3482e-07	1.5843e-09	-1.1186e-09	1.3898e-10	3.3464e-07	-3.352e-07	3.2703e-09	-1.9932e-09	1.3441e-10	3.3474e-07	-3.3608e-07	6.0292e-09	-3.2636e-09	1.3389e-10	3.3464e-07	-3.3758e-07	1.03376e-08	-4.992e-09	1.373e-10	3.3488e-07	-3.4024e-07	1.66736e-08	-7.2339e-09	1.354e-10	3.3514e-07	-3.4466e-07
-0.22	1.1395e-10	-2.6178e-10	1.3046e-10	3.3532e-07	-3.3526e-07	6.3059e-10	-5.4423e-10	1.301e-10	3.346e-07	-3.348e-07	1.5689e-09	-1.0863e-09	1.3127e-10	3.3454e-07	-3.3526e-07	3.2354e-09	-1.954e-09	1.2454e-10	3.347e-07	-3.3608e-07	5.9711e-09	-3.2115e-09	1.2751e-10	3.3472e-07	-3.3762e-07	1.02624e-08	-4.9143e-09	1.291e-10	3.3478e-07	-3.402e-07	1.65646e-08	-7.1387e-09	1.2695e-10	3.3524e-07	-3.4472e-07
-0.215	1.1985e-10	-2.429e-10	1.2554e-10	3.3536e-07	-3.352e-07	6.1014e-10	-5.2696e-10	1.2224e-10	3.3466e-07	-3.3478e-07	1.5348e-09	-1.0576e-09	1.2262e-10	3.3466e-07	-3.3526e-07	3.1953e-09	-1.9093e-09	1.2244e-10	3.3478e-07	-3.3604e-07	5.9268e-09	-3.15e-09	1.2045e-10	3.347e-07	-3.3756e-07	1.01892e-08	-4.8411e-09	1.2153e-10	3.3474e-07	-3.402e-07	1.64698e-08	-7.049e-09	1.2007e-10	3.351e-07	-3.4458e-07
-0.21	1.0449e-10	-2.3682e-10	1.2093e-10	3.3536e-07	-3.3524e-07	6.0146e-10	-5.0452e-10	1.1603e-10	3.3482e-07	-3.3506e-07	1.5238e-09	-1.0246e-09	1.1623e-10	3.347e-07	-3.3532e-07	3.1711e-09	-1.8682e-09	1.1364e-10	3.346e-07	-3.3598e-07	5.8773e-09	-3.0997e-09	1.1449e-10	3.3474e-07	-3.3758e-07	1.01174e-08	-4.7694e-09	1.16e-10	3.3476e-07	-3.4018e-07	1.6401e-08	-6.9524e-09	1.1685e-10	3.3522e-07	-3.4458e-07
-0.205	1.0383e-10	-2.2052e-10	1.1861e-10	3.353e-07	-3.3528e-07	5.9015e-10	-4.8865e-10	1.0653e-10	3.3488e-07	-3.3508e-07	1.494e-09	-1.001e-09	1.101e-10	3.3474e-07	-3.352e-07	3.1202e-09	-1.8297e-09	1.1159e-10	3.3446e-07	-3.3598e-07	5.8166e-09	-3.0409e-09	1.1194e-10	3.3472e-07	-3.376e-07	1.00528e-08	-4.6982e-09	1.1593e-10	3.3486e-07	-3.4026e-07	1.62896e-08	-6.8626e-09	1.0837e-10	3.3518e-07	-3.4464e-07
-0.2	1.0336e-10	-2.1166e-10	1.0963e-10	3.3524e-07	-3.3524e-07	5.7286e-10	-4.6939e-10	1.0404e-10	3.3488e-07	-3.3508e-07	1.4767e-09	-9.6941e-10	1.081e-10	3.3466e-07	-3.3526e-07	3.0993e-09	-1.7866e-09	1.0416e-10	3.3468e-07	-3.3608e-07	5.777e-09	-2.9872e-09	1.0419e-10	3.3468e-07	-3.3752e-07	1.00128e-08	-4.6249e-09	1.0529e-10	3.3474e-07	-3.4012e-07	1.62026e-08	-6.7741e-09	1.068e-10	3.3512e-07	-3.4454e-07
-0.195	8.77e-11	-2.0115e-10	1.0624e-10	3.352e-07	-3.352e-07	5.7255e-10	-4.4994e-10	9.668e-11	3.349e-07	-3.3508e-07	1.4507e-09	-9.4261e-10	1.0193e-10	3.3472e-07	-3.3524e-07	3.0511e-09	-1.7514e-09	1.0222e-10	3.3464e-07	-3.3598e-07	5.7341e-09	-2.9323e-09	1.0283e-10	3.347e-07	-3.3762e-07	9.9374e-09	-4.5545e-09	9.806e-11	3.3476e-07	-3.4016e-07	1.61074e-08	-6.6817e-09	1.0159e-10	3.3508e-07	-3.4464e-07
-0.19	9.507e-11	-1.8817e-10	9.742e-11	3.352e-07	-3.3518e-07	5.4445e-10	-4.3456e-10	9.354e-11	3.3488e-07	-3.3506e-07	1.4262e-09	-9.157e-10	9.529e-11	3.3464e-07	-3.3522e-07	3.0325e-09	-1.708e-09	9.839e-11	3.3472e-07	-3.3616e-07	5.705e-09	-2.8791e-09	9.365e-11	3.3468e-07	-3.3756e-07	9.857e-09	-4.4891e-09	9.304e-11	3.347e-07	-3.4024e-07	1.60518e-08	-6.5928e-09	9.488e-11	3.3502e-07	-3.4454e-07
-0.185	7.79e-11	-1.8143e-10	9.138e-11	3.3524e-07	-3.3526e-07	5.4661e-10	-4.1354e-10	9.035e-11	3.3484e-07	-3.3502e-07	1.4103e-09	-8.8972e-10	8.906e-11	3.3492e-07	-3.3544e-07	2.9895e-09	-1.6754e-09	9.167e-11	3.346e-07	-3.36e-07	5.6396e-09	-2.8294e-09	9.191e-11	3.3466e-07	-3.375e-07	9.7996e-09	-4.4125e-09	8.714e-11	3.3474e-07	-3.4014e-07	1.59766e-08	-6.5054e-09	8.457e-11	3.3508e-07	-3.4452e-07
-0.18	8.794e-11	-1.6636e-10	8.649e-11	3.3524e-07	-3.3544e-07	5.2589e-10	-4.0166e-10	8.634e-11	3.3482e-07	-3.35e-07	1.3818e-09	-8.6477e-10	8.119e-11	3.347e-07	-3.3526e-07	2.962e-09	-1.6323e-09	8.83e-11	3.3464e-07	-3.3598e-07	5.5929e-09	-2.7736e-09	8.316e-11	3.3458e-07	-3.3772e-07	9.7059e-09	-4.3488e-09	7.997e-11	3.347e-07	-3.4008e-07	1.58454e-08	-6.4227e-09	8.265e-11	3.3514e-07	-3.446e-07
-0.175	7.52e-11	-1.6177e-10	8.116e-11	3.3544e-07	-3.355e-07	5.186e-10	-3.8239e-10	8.172e-11	3.346e-07	-3.348e-07	1.3719e-09	-8.3761e-10	7.527e-11	3.3466e-07	-3.3518e-07	2.9307e-09	-1.5985e-09	7.874e-11	3.3464e-07	-3.3598e-07	5.5358e-09	-2.7254e-09	8.076e-11	3.3488e-07	-3.377e-07	9.6346e-09	-4.2793e-09	7.611e-11	3.3466e-07	-3.4008e-07	1.57756e-08	-6.3326e-09	7.619e-11	3.3502e-07	-3.4464e-07
-0.17	7.312e-11	-1.4893e-10	7.98e-11	3.356e-07	-3.3532e-07	5.1143e-10	-3.69e-10	7.316e-11	3.346e-07	-3.3482e-07	1.3471e-09	-8.1512e-10	6.952e-11	3.3458e-07	-3.3514e-07	2.8912e-09	-1.5603e-09	7.553e-11	3.3472e-07	-3.3598e-07	5.496e-09	-2.6688e-09	7.547e-11	3.3484e-07	-3.3772e-07	9.5868e-09	-4.2147e-09	6.794e-11	3.3474e-07	-3.4016e-07	1.56864e-08	-6.2495e-09	7.205e-11	3.3502e-07	-3.4442e-07
-0.165	7.065e-11	-1.4238e-10	7.414e-11	3.3544e-07	-3.3544e-07	4.9291e-10	-3.5317e-10	7.056e-11	3.3462e-07	-3.3474e-07	1.3329e-09	-7.8939e-10	6.432e-11	3.3464e-07	-3.3516e-07	2.8742e-09	-1.5236e-09	6.55e-11	3.3508e-07	-3.3642e-07	5.4403e-09	-2.6258e-09	6.842e-11	3.3494e-07	-3.3772e-07	9.4992e-09	-4.1504e-09	6.629e-11	3.3462e-07	-3.4002e-07	1.5646e-08	-6.166e-09	6.751e-11	3.3506e-07	-3.445e-07
-0.16	6.18e-11	-1.3323e-10	7.242e-11	3.3544e-07	-3.3544e-07	4.9888e-10	-3.3641e-10	6.049e-11	3.3462e-07	-3.3478e-07	1.3043e-09	-7.6742e-10	6.126e-11	3.3458e-07	-3.3528e-07	2.8299e-09	-1.4903e-09	6.189e-11	3.3512e-07	-3.3644e-07	5.4025e-09	-2.5722e-09	6.633e-11	3.3486e-07	-3.3776e-07	9.4523e-09	-4.0838e-09	5.956e-11	3.349e-07	-3.4034e-07	1.5524e-08	-6.0816e-09	6.729e-11	3.3502e-07	-3.4446e-07
-0.155	6.656e-11	-1.2415e-10	6.704e-11	3.355e-07	-3.3544e-07	4.7197e-10	-3.262e-10	5.833e-11	3.3462e-07	-3.3478e-07	1.2949e-09	-7.4138e-10	5.774e-11	3.346e-07	-3.3518e-07	2.8134e-09	-1.4505e-09	5.557e-11	3.351e-07	-3.3644e-07	5.3547e-09	-2.527e-09	5.663e-11	3.349e-07	-3.377e-07	9.3791e-09	-4.0231e-09	5.783e-11	3.3496e-07	-3.404e-07	1.54316e-08	-5.9981e-09	5.857e-11	3.3482e-07	-3.4422e-07
-0.15	5.063e-11	-1.1843e-10	6.187e-11	3.3556e-07	-3.3548e-07	4.7657e-10	-3.0672e-10	5.312e-11	3.3472e-07	-3.3482e-07	1.2744e-09	-7.2262e-10	5.621e-11	3.3466e-07	-3.3528e-07	2.7699e-09	-1.421e-09	5.072e-11	3.3512e-07	-3.3642e-07	5.3046e-09	-2.4788e-09	5.458e-11	3.347e-07	-3.375e-07	9.3355e-09	-3.9568e-09	5.337e-11	3.3494e-07	-3.4034e-07	1.53456e-08	-5.9182e-09	4.96e-11	3.3476e-07	-3.4422e-07
-0.145	5.516e-11	-1.0875e-10	5.738e-11	3.3524e-07	-3.3516e-07	4.5796e-10	-2.9733e-10	4.975e-11	3.3462e-07	-3.3476e-07	1.2609e-09	-6.9735e-10	5.08e-11	3.347e-07	-3.353e-07	2.7496e-09	-1.3829e-09	4.611e-11	3.3506e-07	-3.3648e-07	5.2826e-09	-2.4315e-09	4.327e-11	3.347e-07	-3.3756e-07	9.2635e-09	-3.8974e-09	5.038e-11	3.3492e-07	-3.4032e-07	1.52782e-08	-5.8413e-09	4.745e-11	3.3484e-07	-3.4426e-07
-0.14	4.528e-11	-1.0372e-10	5.136e-11	3.352e-07	-3.3518e-07	4.4867e-10	-2.8037e-10	4.97e-11	3.346e-07	-3.3482e-07	1.2463e-09	-6.7745e-10	4.785e-11	3.3468e-07	-3.3524e-07	2.7182e-09	-1.3548e-09	4.136e-11	3.3508e-07	-3.3644e-07	5.2221e-09	-2.3902e-09	4.063e-11	3.3488e-07	-3.377e-07	9.2017e-09	-3.8346e-09	4.662e-11	3.3494e-07	-3.4024e-07	1.52232e-08	-5.7582e-09	4.409e-11	3.348e-07	-3.4418e-07
-0.135	4.764e-11	-9.448e-11	4.885e-11	3.3518e-07	-3.3512e-07	4.4784e-10	-2.7063e-10	4.275e-11	3.3462e-07	-3.3482e-07	1.2282e-09	-6.554e-10	4.182e-11	3.3468e-07	-3.3532e-07	2.6907e-09	-1.3197e-09	3.859e-11	3.3512e-07	-3.3636e-07	5.1987e-09	-2.3398e-09	3.26e-11	3.3492e-07	-3.3776e-07	9.1531e-09	-3.7739e-09	3.809e-11	3.3494e-07	-3.4036e-07	1.5121e-08	-5.6804e-09	3.852e-11	3.3476e-07	-3.442e-07
-0.13	4.152e-11	-8.99e-11	4.501e-11	3.3522e-07	-3.3506e-07	4.3295e-10	-2.581e-10	4.103e-11	3.3464e-07	-3.3478e-07	1.2176e-09	-6.3463e-10	3.363e-11	3.3468e-07	-3.3528e-07	2.6677e-09	-1.2917e-09	3.079e-11	3.3506e-07	-3.3644e-07	5.1458e-09	-2.3e-09	2.887e-11	3.3466e-07	-3.376e-07	9.0885e-09	-3.7139e-09	3.614e-11	3.347e-07	-3.4014e-07	1.50816e-08	-5.6043e-09	3.013e-11	3.3494e-07	-3.443e-07
-0.125	3.965e-11	-8.144e-11	4.23e-11	3.3524e-07	-3.3528e-07	4.4526e-10	-2.438e-10	3e-11	3.3454e-07	-3.348e-07	1.1938e-09	-6.1475e-10	2.924e-11	3.3454e-07	-3.3522e-07	2.6392e-09	-1.2597e-09	2.862e-11	3.351e-07	-3.3646e-07	5.1278e-09	-2.2511e-09	2.503e-11	3.3464e-07	-3.3752e-07	9.0359e-09	-3.6531e-09	2.446e-11	3.3476e-07	-3.4014e-07	1.49836e-08	-5.528e-09	2.895e-11	3.3476e-07	-3.4424e-07
-0.12	4.167e-11	-7.689e-11	4.094e-11	3.353e-07	-3.3528e-07	4.2444e-10	-2.3669e-10	2.343e-11	3.3466e-07	-3.3484e-07	1.1897e-09	-5.928e-10	1.903e-11	3.3506e-07	-3.3568e-07	2.6207e-09	-1.2297e-09	2.099e-11	3.3514e-07	-3.3658e-07	5.079e-09	-2.2119e-09	1.706e-11	3.3474e-07	-3.3756e-07	8.9779e-09	-3.5974e-09	2.028e-11	3.347e-07	-3.4012e-07	1.49046e-08	-5.4457e-09	1.896e-11	3.3488e-07	-3.4424e-07
-0.115	3.304e-11	-7.147e-11	3.726e-11	3.3508e-07	-3.35e-07	4.332e-10	-2.2038e-10	1.341e-11	3.3488e-07	-3.3502e-07	1.162e-09	-5.758e-10	1.511e-11	3.353e-07	-3.3588e-07	2.5859e-09	-1.2022e-09	1.589e-11	3.3502e-07	-3.365e-07	5.0375e-09	-2.1645e-09	1.528e-11	3.346e-07	-3.3744e-07	8.9437e-09	-3.5341e-09	1.065e-11	3.3476e-07	-3.4018e-07	1.4827e-08	-5.3754e-09	1.17e-11	3.3482e-07	-3.4418e-07
-0.11	3.172e-11	-6.5e-11	3.482e-11	3.3532e-07	-3.3524e-07	4.2068e-10	-2.1411e-10	5.07e-12	3.3472e-07	-3.3488e-07	1.1615e-09	-5.5299e-10	5.35e-12	3.3536e-07	-3.3594e-07	2.5727e-09	-1.1707e-09	8.7e-12	3.3502e-07	-3.365e-07	5.0179e-09	-2.1241e-09	5.21e-12	3.346e-07	-3.3744e-07	8.8698e-09	-3.4818e-09	4.12e-12	3.3472e-07	-3.4018e-07	1.47668e-08	-5.2992e-09	5.9e-13	3.3472e-07	-3.4422e-07
-0.105	2.373e-11	-6.165e-11	3.032e-11	3.352e-07	-3.352e-07	4.1596e-10	-2.0003e-10	8e-14	3.3472e-07	-3.3486e-07	1.1436e-09	-5.3873e-10	-1.6e-12	3.3534e-07	-3.3592e-07	2.5433e-09	-1.144e-09	3.3e-13	3.3514e-07	-3.3652e-07	4.9679e-09	-2.0822e-09	1.81e-12	3.346e-07	-3.3752e-07	8.8228e-09	-3.4192e-09	-4.89e-12	3.3476e-07	-3.4004e-07	1.46832e-08	-5.2246e-09	-3.5e-12	3.349e-07	-3.4422e-07
-0.1	2.975e-11	-5.544e-11	2.595e-11	3.352e-07	-3.352e-07	4.2079e-10	-1.9097e-10	-1.055e-11	3.3456e-07	-3.3472e-07	1.1396e-09	-5.1717e-10	-9.55e-12	3.3536e-07	-3.3592e-07	2.5356e-09	-1.1133e-09	-6.94e-12	3.3514e-07	-3.3656e-07	4.9396e-09	-2.0402e-09	-8.07e-12	3.346e-07	-3.375e-07	8.7671e-09	-3.3685e-09	-1.274e-11	3.3466e-07	-3.4008e-07	1.46504e-08	-5.152e-09	-1.621e-11	3.3474e-07	-3.4406e-07
-0.095	2.257e-11	-5.279e-11	2.204e-11	3.352e-07	-3.352e-07	4.0569e-10	-1.8268e-10	-1.287e-11	3.3464e-07	-3.3466e-07	1.1306e-09	-5.0187e-10	-2.219e-11	3.3512e-07	-3.3568e-07	2.5106e-09	-1.0868e-09	-1.89e-11	3.3498e-07	-3.3648e-07	4.9032e-09	-2.0018e-09	-1.594e-11	3.3462e-07	-3.375e-07	8.7178e-09	-3.3091e-09	-1.828e-11	3.3466e-07	-3.4006e-07	1.45602e-08	-5.081e-09	-2.198e-11	3.3476e-07	-3.4414e-07
-0.09	2.464e-11	-4.675e-11	1.72e-11	3.352e-07	-3.3514e-07	4.2114e-10	-1.7027e-10	-2.487e-11	3.3454e-07	-3.348e-07	1.1183e-09	-4.8356e-10	-2.842e-11	3.3514e-07	-3.3574e-07	2.4974e-09	-1.0565e-09	-2.891e-11	3.3514e-07	-3.3642e-07	4.8778e-09	-1.9578e-09	-2.993e-11	3.3452e-07	-3.374e-07	8.699e-09	-3.2581e-09	-3.167e-11	3.3466e-07	-3.3996e-07	1.45236e-08	-5.0102e-09	-3.113e-11	3.3472e-07	-3.4402e-07
-0.085	2.031e-11	-4.467e-11	1.676e-11	3.352e-07	-3.3526e-07	4.0775e-10	-1.6579e-10	-3.565e-11	3.3458e-07	-3.347e-07	1.1263e-09	-4.6672e-10	-4.258e-11	3.3518e-07	-3.3572e-07	2.4811e-09	-1.0309e-09	-4.091e-11	3.3504e-07	-3.3642e-07	4.8489e-09	-1.9235e-09	-4.262e-11	3.3456e-07	-3.3738e-07	8.6433e-09	-3.2034e-09	-3.944e-11	3.3464e-07	-3.4e-07	1.44262e-08	-4.9336e-09	-3.972e-11	3.3468e-07	-3.4408e-07
-0.08	2.141e-11	-3.897e-11	1.289e-11	3.3524e-07	-3.3516e-07	4.2513e-10	-1.5222e-10	-4.857e-11	3.345e-07	-3.3476e-07	1.108e-09	-4.5362e-10	-5.242e-11	3.3532e-07	-3.3596e-07	2.4672e-09	-1.0039e-09	-5.444e-11	3.3504e-07	-3.3642e-07	4.8235e-09	-1.8803e-09	-5.652e-11	3.3464e-07	-3.3744e-07	8.5984e-09	-3.1473e-09	-5.69e-11	3.3464e-07	-3.3994e-07	1.43328e-08	-4.8663e-09	-5.81e-11	3.3474e-07	-3.4414e-07
-0.075	2.22e-11	-3.778e-11	1.151e-11	3.3518e-07	-3.3514e-07	4.2614e-10	-1.4884e-10	-6.767e-11	3.346e-07	-3.348e-07	1.1176e-09	-4.3509e-10	-6.952e-11	3.3508e-07	-3.3562e-07	2.4541e-09	-9.8011e-10	-6.578e-11	3.3502e-07	-3.3652e-07	4.7926e-09	-1.8458e-09	-7.562e-11	3.346e-07	-3.3744e-07	8.5497e-09	-3.1e-09	-6.851e-11	3.3462e-07	-3.4e-07	1.4307e-08	-4.7955e-09	-7.466e-11	3.3474e-07	-3.4408e-07
-0.07	1.689e-11	-3.316e-11	1.089e-11	3.352e-07	-3.352e-07	4.3143e-10	-1.3813e-10	-8.376e-11	3.3468e-07	-3.3492e-07	1.1049e-09	-4.2372e-10	-8.734e-11	3.3518e-07	-3.358e-07	2.4437e-09	-9.5662e-10	-8.436e-11	3.3512e-07	-3.3654e-07	4.7727e-09	-1.8062e-09	-9.309e-11	3.346e-07	-3.3738e-07	8.5394e-09	-3.0444e-09	-8.864e-11	3.3464e-07	-3.4006e-07	1.42338e-08	-4.7306e-09	-9.323e-11	3.3472e-07	-3.4396e-07
-0.065	2.018e-11	-3e-11	8.18e-12	3.3544e-07	-3.353e-07	4.5226e-10	-1.3082e-10	-1.0758e-10	3.347e-07	-3.3484e-07	1.1251e-09	-4.0515e-10	-1.0773e-10	3.3512e-07	-3.3574e-07	2.4427e-09	-9.2881e-10	-1.0603e-10	3.3518e-07	-3.3654e-07	4.7662e-09	-1.771e-09	-1.1751e-10	3.3458e-07	-3.3728e-07	8.5211e-09	-2.9978e-09	-1.0872e-10	3.3476e-07	-3.4012e-07	1.42272e-08	-4.6592e-09	-1.1749e-10	3.3478e-07	-3.4408e-07
-0.06	1.029e-11	-2.816e-11	8.06e-12	3.3532e-07	-3.3512e-07	4.5494e-10	-1.2499e-10	-1.2618e-10	3.3464e-07	-3.3484e-07	1.1281e-09	-3.9473e-10	-1.3361e-10	3.3498e-07	-3.3566e-07	2.4367e-09	-9.0586e-10	-1.2842e-10	3.3514e-07	-3.3646e-07	4.7534e-09	-1.7347e-09	-1.373e-10	3.3456e-07	-3.3738e-07	8.4737e-09	-2.9413e-09	-1.3147e-10	3.3464e-07	-3.3996e-07	1.41508e-08	-4.5932e-09	-1.4042e-10	3.3472e-07	-3.4406e-07
