Vg	Id,Vd=0V	Ig,Vd=0V	Is,Vd=0V	Iavdd,Vd=0V	Ignd,Vd=0V	Id,Vd=0.15V	Ig,Vd=0.15V	Is,Vd=0.15V	Iavdd,Vd=0.15V	Ignd,Vd=0.15V	Id,Vd=0.3V	Ig,Vd=0.3V	Is,Vd=0.3V	Iavdd,Vd=0.3V	Ignd,Vd=0.3V	Id,Vd=0.45V	Ig,Vd=0.45V	Is,Vd=0.45V	Iavdd,Vd=0.45V	Ignd,Vd=0.45V	Id,Vd=0.6V	Ig,Vd=0.6V	Is,Vd=0.6V	Iavdd,Vd=0.6V	Ignd,Vd=0.6V	Id,Vd=0.75V	Ig,Vd=0.75V	Is,Vd=0.75V	Iavdd,Vd=0.75V	Ignd,Vd=0.75V	Id,Vd=0.9V	Ig,Vd=0.9V	Is,Vd=0.9V	Iavdd,Vd=0.9V	Ignd,Vd=0.9V
-0.3	2.689e-11	-6.519e-11	2.38e-11	3.5974e-07	-3.5966e-07	3.2977e-10	-1.177e-10	2.347e-11	3.5984e-07	-3.6002e-07	8.6305e-10	-2.1485e-10	2.371e-11	3.5958e-07	-3.6014e-07	1.8122e-09	-3.8843e-10	2.498e-11	3.5972e-07	-3.6114e-07	3.5793e-09	-6.5519e-10	2.53e-11	3.6006e-07	-3.6304e-07	6.5858e-09	-1.0402e-09	2.4e-11	3.6002e-07	-3.6552e-07	1.16438e-08	-1.5594e-09	2.103e-11	3.6022e-07	-3.701e-07
-0.295	2.61e-11	-6.18e-11	2.512e-11	3.598e-07	-3.5974e-07	3.0884e-10	-1.0987e-10	2.37e-11	3.597e-07	-3.6004e-07	7.9956e-10	-2.0929e-10	2.128e-11	3.5958e-07	-3.6008e-07	1.8193e-09	-3.8005e-10	2.314e-11	3.5964e-07	-3.6114e-07	3.59e-09	-6.3971e-10	2.176e-11	3.6006e-07	-3.6306e-07	6.5333e-09	-1.0197e-09	2.215e-11	3.5998e-07	-3.6556e-07	1.14186e-08	-1.5337e-09	1.536e-11	3.6012e-07	-3.6982e-07
-0.29	2.711e-11	-6.291e-11	2.352e-11	3.5974e-07	-3.5968e-07	3.2187e-10	-1.0564e-10	2.211e-11	3.598e-07	-3.6002e-07	7.9161e-10	-2.0421e-10	1.993e-11	3.5956e-07	-3.6018e-07	1.8582e-09	-3.7114e-10	2.191e-11	3.5964e-07	-3.611e-07	3.5655e-09	-6.3033e-10	2.074e-11	3.5994e-07	-3.6288e-07	6.512e-09	-1.0016e-09	1.974e-11	3.6016e-07	-3.6564e-07	1.13948e-08	-1.5078e-09	1.852e-11	3.6012e-07	-3.6998e-07
-0.285	2.368e-11	-6.016e-11	2.602e-11	3.5966e-07	-3.5974e-07	3.1228e-10	-1.0147e-10	1.959e-11	3.5964e-07	-3.5988e-07	7.9978e-10	-1.9395e-10	1.913e-11	3.5956e-07	-3.6014e-07	1.8143e-09	-3.5895e-10	1.984e-11	3.597e-07	-3.611e-07	3.4903e-09	-6.1138e-10	1.839e-11	3.601e-07	-3.6276e-07	6.5947e-09	-9.8189e-10	1.778e-11	3.601e-07	-3.6566e-07	1.14e-08	-1.4879e-09	1.53e-11	3.5998e-07	-3.6984e-07
-0.28	2.294e-11	-5.919e-11	2.478e-11	3.5976e-07	-3.5966e-07	3.2547e-10	-9.502e-11	1.88e-11	3.5976e-07	-3.5984e-07	8.0934e-10	-1.9342e-10	1.878e-11	3.595e-07	-3.601e-07	1.7978e-09	-3.5394e-10	1.897e-11	3.5966e-07	-3.6104e-07	3.5096e-09	-6.0358e-10	1.424e-11	3.6002e-07	-3.629e-07	6.56e-09	-9.6441e-10	1.578e-11	3.6022e-07	-3.6566e-07	1.13968e-08	-1.4623e-09	1.549e-11	3.6006e-07	-3.6984e-07
-0.275	2.177e-11	-5.429e-11	2.56e-11	3.5976e-07	-3.5954e-07	3.188e-10	-9.435e-11	1.762e-11	3.597e-07	-3.5998e-07	8.1384e-10	-1.8254e-10	1.798e-11	3.5952e-07	-3.6014e-07	1.7894e-09	-3.3997e-10	1.72e-11	3.5962e-07	-3.6096e-07	3.5106e-09	-5.8674e-10	1.369e-11	3.6e-07	-3.6278e-07	6.4525e-09	-9.5117e-10	1.479e-11	3.6016e-07	-3.6558e-07	1.13068e-08	-1.4452e-09	1.168e-11	3.6008e-07	-3.6976e-07
-0.27	2.144e-11	-4.73e-11	2.389e-11	3.5972e-07	-3.5974e-07	2.9591e-10	-8.807e-11	1.79e-11	3.5964e-07	-3.599e-07	8.0735e-10	-1.8085e-10	1.585e-11	3.595e-07	-3.6014e-07	1.7929e-09	-3.3677e-10	1.469e-11	3.5966e-07	-3.6116e-07	3.5495e-09	-5.7553e-10	1.13e-11	3.5996e-07	-3.6284e-07	6.4421e-09	-9.3259e-10	1.241e-11	3.6016e-07	-3.6556e-07	1.13694e-08	-1.4223e-09	1.283e-11	3.5994e-07	-3.699e-07
-0.265	1.216e-11	-4.065e-11	1.496e-11	3.5976e-07	-3.5976e-07	3.0984e-10	-8.62e-11	1.487e-11	3.5964e-07	-3.5988e-07	8.1004e-10	-1.722e-10	1.673e-11	3.5954e-07	-3.6014e-07	1.7841e-09	-3.2299e-10	1.356e-11	3.5958e-07	-3.6096e-07	3.4568e-09	-5.6751e-10	1.119e-11	3.5994e-07	-3.6288e-07	6.3929e-09	-9.1347e-10	9.01e-12	3.6008e-07	-3.6554e-07	1.12606e-08	-1.4011e-09	8.34e-12	3.5994e-07	-3.697e-07
-0.26	1.402e-11	-3.421e-11	1.232e-11	3.5962e-07	-3.5968e-07	3.1424e-10	-8.084e-11	1.552e-11	3.5974e-07	-3.5986e-07	8.0105e-10	-1.6706e-10	1.31e-11	3.5954e-07	-3.6016e-07	1.7915e-09	-3.1921e-10	9.83e-12	3.5962e-07	-3.6104e-07	3.5726e-09	-5.5098e-10	7.85e-12	3.5974e-07	-3.6272e-07	6.4206e-09	-9.0021e-10	9.68e-12	3.6012e-07	-3.6558e-07	1.12854e-08	-1.3759e-09	4.55e-12	3.599e-07	-3.6984e-07
-0.255	2.039e-11	-3.724e-11	1.36e-11	3.5972e-07	-3.5968e-07	3.0979e-10	-7.62e-11	1.318e-11	3.5972e-07	-3.599e-07	7.8447e-10	-1.6419e-10	1.007e-11	3.5954e-07	-3.6012e-07	1.7283e-09	-3.0908e-10	9.91e-12	3.5958e-07	-3.6094e-07	3.4394e-09	-5.4522e-10	7.29e-12	3.597e-07	-3.6264e-07	6.3983e-09	-8.8258e-10	5.63e-12	3.6006e-07	-3.6564e-07	1.1263e-08	-1.3593e-09	5.59e-12	3.5992e-07	-3.6972e-07
-0.25	1.887e-11	-4.082e-11	1.857e-11	3.5966e-07	-3.595e-07	3.0141e-10	-7.428e-11	9.59e-12	3.5976e-07	-3.5992e-07	7.9847e-10	-1.5478e-10	1.08e-11	3.5952e-07	-3.6016e-07	1.7206e-09	-3.03e-10	6.27e-12	3.5958e-07	-3.609e-07	3.4034e-09	-5.2842e-10	4.94e-12	3.597e-07	-3.6262e-07	6.3681e-09	-8.7309e-10	5.36e-12	3.6002e-07	-3.655e-07	1.11078e-08	-1.34e-09	7.73e-12	3.5988e-07	-3.6948e-07
-0.245	1.785e-11	-3.669e-11	1.836e-11	3.6048e-07	-3.6044e-07	3.1097e-10	-6.926e-11	8.32e-12	3.5976e-07	-3.599e-07	7.6447e-10	-1.5523e-10	7.37e-12	3.5952e-07	-3.601e-07	1.7061e-09	-2.9603e-10	3.77e-12	3.5954e-07	-3.6092e-07	3.4181e-09	-5.2049e-10	-6.2e-13	3.5962e-07	-3.6256e-07	6.4391e-09	-8.4949e-10	1.83e-12	3.6004e-07	-3.6552e-07	1.11984e-08	-1.3191e-09	3.63e-12	3.5984e-07	-3.6962e-07
-0.24	1.364e-11	-3.364e-11	1.886e-11	3.6054e-07	-3.6054e-07	3.0483e-10	-7.022e-11	5.85e-12	3.5976e-07	-3.5998e-07	7.6303e-10	-1.466e-10	7.26e-12	3.5958e-07	-3.6004e-07	1.7494e-09	-2.8488e-10	3.48e-12	3.5956e-07	-3.6098e-07	3.4504e-09	-5.0693e-10	-1.25e-12	3.5964e-07	-3.6248e-07	6.3948e-09	-8.4262e-10	-1.76e-12	3.5998e-07	-3.6554e-07	1.1065e-08	-1.2971e-09	-4.47e-12	3.599e-07	-3.696e-07
-0.235	1.153e-11	-2.598e-11	1.402e-11	3.6052e-07	-3.6052e-07	3.0328e-10	-6.596e-11	5.46e-12	3.5972e-07	-3.5984e-07	7.6929e-10	-1.4495e-10	4.28e-12	3.5958e-07	-3.6022e-07	1.7657e-09	-2.8264e-10	9.6e-13	3.5946e-07	-3.6092e-07	3.4735e-09	-4.9863e-10	-3.2e-12	3.5976e-07	-3.626e-07	6.3998e-09	-8.2159e-10	-6.2e-12	3.5992e-07	-3.6552e-07	1.10218e-08	-1.279e-09	-9.36e-12	3.5982e-07	-3.6956e-07
-0.23	7.44e-12	-2.045e-11	6.65e-12	3.6052e-07	-3.6052e-07	3.1008e-10	-6.527e-11	1.78e-12	3.5974e-07	-3.5986e-07	7.5676e-10	-1.3935e-10	2.18e-12	3.5944e-07	-3.6004e-07	1.7452e-09	-2.7133e-10	-1.66e-12	3.5952e-07	-3.6102e-07	3.4053e-09	-4.9156e-10	-3.17e-12	3.5976e-07	-3.626e-07	6.3055e-09	-8.0865e-10	-1.167e-11	3.5998e-07	-3.6544e-07	1.09842e-08	-1.2592e-09	-1.336e-11	3.5984e-07	-3.695e-07
-0.225	4.55e-12	-1.785e-11	6.81e-12	3.606e-07	-3.6046e-07	2.9451e-10	-6.275e-11	2e-12	3.5968e-07	-3.5992e-07	7.5762e-10	-1.3393e-10	-1.87e-12	3.5956e-07	-3.6016e-07	1.7382e-09	-2.6832e-10	-5.95e-12	3.5956e-07	-3.6098e-07	3.3897e-09	-4.8105e-10	-6.47e-12	3.5958e-07	-3.6252e-07	6.2572e-09	-7.9326e-10	-1.547e-11	3.5992e-07	-3.6528e-07	1.09946e-08	-1.2368e-09	-1.825e-11	3.5988e-07	-3.6954e-07
-0.22	1.034e-11	-1.691e-11	4.95e-12	3.597e-07	-3.5968e-07	2.9114e-10	-5.913e-11	-1.81e-12	3.598e-07	-3.5996e-07	7.5582e-10	-1.3267e-10	-6.67e-12	3.595e-07	-3.6008e-07	1.7302e-09	-2.5759e-10	-7.73e-12	3.596e-07	-3.6104e-07	3.3757e-09	-4.7484e-10	-1.047e-11	3.5962e-07	-3.6256e-07	6.2771e-09	-7.8033e-10	-2.162e-11	3.5994e-07	-3.6534e-07	1.094e-08	-1.2197e-09	-3.068e-11	3.6004e-07	-3.6966e-07
-0.215	9.59e-12	-1.805e-11	4.99e-12	3.5966e-07	-3.5968e-07	3.0412e-10	-5.774e-11	-5.75e-12	3.5964e-07	-3.5998e-07	7.5815e-10	-1.2513e-10	-8.57e-12	3.5958e-07	-3.6006e-07	1.728e-09	-2.5357e-10	-1.368e-11	3.5958e-07	-3.6088e-07	3.392e-09	-4.5747e-10	-1.557e-11	3.5956e-07	-3.625e-07	6.2529e-09	-7.7041e-10	-2.714e-11	3.5964e-07	-3.6508e-07	1.10342e-08	-1.1966e-09	-3.897e-11	3.6e-07	-3.698e-07
-0.21	1.189e-11	-1.477e-11	5.25e-12	3.5964e-07	-3.596e-07	2.8898e-10	-5.473e-11	-8.44e-12	3.5976e-07	-3.5998e-07	7.828e-10	-1.2387e-10	-1.436e-11	3.5956e-07	-3.6004e-07	1.7313e-09	-2.4632e-10	-1.824e-11	3.5964e-07	-3.6106e-07	3.4448e-09	-4.5113e-10	-2.504e-11	3.5956e-07	-3.6258e-07	6.2693e-09	-7.5087e-10	-3.408e-11	3.5974e-07	-3.6508e-07	1.10666e-08	-1.1778e-09	-4.433e-11	3.6008e-07	-3.6974e-07
-0.205	7.31e-12	-1.779e-11	5.74e-12	3.5958e-07	-3.5966e-07	2.8744e-10	-5.304e-11	-1.362e-11	3.5964e-07	-3.5986e-07	7.4887e-10	-1.1806e-10	-1.644e-11	3.5952e-07	-3.6008e-07	1.7296e-09	-2.3922e-10	-2.225e-11	3.5952e-07	-3.6102e-07	3.3842e-09	-4.3647e-10	-3.151e-11	3.5962e-07	-3.6246e-07	6.2494e-09	-7.4413e-10	-4.104e-11	3.5972e-07	-3.6514e-07	1.09028e-08	-1.1585e-09	-5.16e-11	3.6e-07	-3.696e-07
-0.2	8.63e-12	-1.793e-11	7.64e-12	3.5964e-07	-3.596e-07	2.8492e-10	-5.168e-11	-1.469e-11	3.5976e-07	-3.5998e-07	7.6214e-10	-1.1496e-10	-2.302e-11	3.5946e-07	-3.6004e-07	1.6922e-09	-2.3758e-10	-2.895e-11	3.5958e-07	-3.61e-07	3.399e-09	-4.3241e-10	-4.062e-11	3.5958e-07	-3.626e-07	6.2467e-09	-7.2487e-10	-4.981e-11	3.5972e-07	-3.6522e-07	1.09054e-08	-1.1499e-09	-5.819e-11	3.5992e-07	-3.6956e-07
-0.195	1.384e-11	-1.84e-11	7.11e-12	3.596e-07	-3.5962e-07	2.961e-10	-4.735e-11	-2.197e-11	3.5974e-07	-3.5986e-07	7.568e-10	-1.1158e-10	-2.842e-11	3.5954e-07	-3.6014e-07	1.6931e-09	-2.2626e-10	-3.467e-11	3.5956e-07	-3.6102e-07	3.3708e-09	-4.2358e-10	-4.739e-11	3.5964e-07	-3.6252e-07	6.2605e-09	-7.1455e-10	-6.132e-11	3.5976e-07	-3.6528e-07	1.08264e-08	-1.1308e-09	-7.049e-11	3.5998e-07	-3.6964e-07
-0.19	6.4e-12	-1.854e-11	7.8e-12	3.5968e-07	-3.5968e-07	2.9434e-10	-4.702e-11	-2.582e-11	3.5978e-07	-3.6002e-07	7.6763e-10	-1.0603e-10	-3.452e-11	3.595e-07	-3.5998e-07	1.73e-09	-2.2613e-10	-4.387e-11	3.5944e-07	-3.6092e-07	3.3663e-09	-4.1527e-10	-5.661e-11	3.5968e-07	-3.6246e-07	6.33e-09	-6.9827e-10	-7.224e-11	3.5974e-07	-3.6518e-07	1.08698e-08	-1.1177e-09	-8.154e-11	3.5988e-07	-3.6948e-07
-0.185	5.48e-12	-1.311e-11	4.1e-12	3.5968e-07	-3.5966e-07	3.0006e-10	-4.169e-11	-3.248e-11	3.5986e-07	-3.5992e-07	7.6299e-10	-1.0417e-10	-4.528e-11	3.5958e-07	-3.5992e-07	1.7298e-09	-2.1687e-10	-5.341e-11	3.5948e-07	-3.609e-07	3.3623e-09	-4.1132e-10	-6.681e-11	3.5956e-07	-3.6244e-07	6.247e-09	-6.8752e-10	-8.618e-11	3.5958e-07	-3.6522e-07	1.08734e-08	-1.0969e-09	-9.79e-11	3.5988e-07	-3.6962e-07
-0.18	4.98e-12	-1.448e-11	3.19e-12	3.5964e-07	-3.596e-07	3.0262e-10	-4.018e-11	-4.249e-11	3.5976e-07	-3.5994e-07	7.7319e-10	-9.721e-11	-5.184e-11	3.5956e-07	-3.6012e-07	1.7585e-09	-2.1325e-10	-6.694e-11	3.5956e-07	-3.6104e-07	3.3896e-09	-3.9799e-10	-7.858e-11	3.5956e-07	-3.6232e-07	6.2285e-09	-6.7753e-10	-1.0053e-10	3.5974e-07	-3.6528e-07	1.09462e-08	-1.084e-09	-1.1381e-10	3.5988e-07	-3.6944e-07
-0.175	1.001e-11	-9.66e-12	5.4e-13	3.597e-07	-3.5966e-07	3.1293e-10	-3.876e-11	-4.835e-11	3.5978e-07	-3.5996e-07	7.7541e-10	-9.543e-11	-6.478e-11	3.5954e-07	-3.6002e-07	1.7721e-09	-2.0733e-10	-7.833e-11	3.595e-07	-3.6098e-07	3.3744e-09	-3.8987e-10	-9.771e-11	3.5956e-07	-3.624e-07	6.2386e-09	-6.5935e-10	-1.1811e-10	3.5976e-07	-3.6532e-07	1.08114e-08	-1.0596e-09	-1.394e-10	3.5988e-07	-3.6956e-07
-0.17	5.27e-12	-1.17e-11	-9.7e-13	3.599e-07	-3.5984e-07	3.2174e-10	-3.625e-11	-5.906e-11	3.5976e-07	-3.5994e-07	7.9051e-10	-9.211e-11	-7.362e-11	3.5944e-07	-3.6004e-07	1.7511e-09	-2.0077e-10	-9.217e-11	3.594e-07	-3.6078e-07	3.41e-09	-3.7627e-10	-1.1674e-10	3.5954e-07	-3.6246e-07	6.287e-09	-6.5509e-10	-1.3927e-10	3.5966e-07	-3.6512e-07	1.07842e-08	-1.0424e-09	-1.6737e-10	3.5992e-07	-3.696e-07
-0.165	2.77e-12	-1.076e-11	-5.2e-13	3.5984e-07	-3.5978e-07	3.2507e-10	-3.777e-11	-6.669e-11	3.5982e-07	-3.6004e-07	8.0624e-10	-9.074e-11	-8.814e-11	3.5946e-07	-3.6006e-07	1.7706e-09	-1.9707e-10	-1.094e-10	3.5944e-07	-3.6092e-07	3.4778e-09	-3.7058e-10	-1.3997e-10	3.5956e-07	-3.6246e-07	6.3476e-09	-6.3571e-10	-1.6388e-10	3.5962e-07	-3.6518e-07	1.08492e-08	-1.0248e-09	-1.9583e-10	3.5982e-07	-3.695e-07
-0.16	1.51e-11	-1.045e-11	-1.07e-12	3.5988e-07	-3.5978e-07	3.4959e-10	-3.316e-11	-8.008e-11	3.5982e-07	-3.6002e-07	8.0653e-10	-8.833e-11	-1.0238e-10	3.5944e-07	-3.6008e-07	1.7947e-09	-1.8759e-10	-1.2884e-10	3.5948e-07	-3.6082e-07	3.4763e-09	-3.6276e-10	-1.6234e-10	3.5958e-07	-3.6242e-07	6.3955e-09	-6.3069e-10	-1.9407e-10	3.5964e-07	-3.6508e-07	1.08826e-08	-1.0095e-09	-2.2903e-10	3.599e-07	-3.696e-07
-0.155	8.24e-12	-1.602e-11	2.98e-12	3.5978e-07	-3.5976e-07	3.7055e-10	-3.473e-11	-9.49e-11	3.5982e-07	-3.5996e-07	8.2812e-10	-8.402e-11	-1.19e-10	3.5952e-07	-3.6004e-07	1.753e-09	-1.8335e-10	-1.5357e-10	3.5934e-07	-3.608e-07	3.5026e-09	-3.5495e-10	-1.8936e-10	3.5958e-07	-3.6246e-07	6.3718e-09	-6.1433e-10	-2.2699e-10	3.5966e-07	-3.6512e-07	1.09808e-08	-9.929e-10	-2.669e-10	3.5992e-07	-3.6956e-07
-0.15	1.092e-11	-1.233e-11	2.63e-12	3.5988e-07	-3.5984e-07	3.7559e-10	-2.917e-11	-1.1057e-10	3.5974e-07	-3.5998e-07	8.4519e-10	-8.166e-11	-1.43e-10	3.5946e-07	-3.6006e-07	1.7715e-09	-1.7538e-10	-1.788e-10	3.5958e-07	-3.6098e-07	3.5259e-09	-3.4931e-10	-2.2029e-10	3.5956e-07	-3.6246e-07	6.4388e-09	-6.0624e-10	-2.6632e-10	3.5958e-07	-3.65e-07	1.10458e-08	-9.7884e-10	-3.1656e-10	3.597e-07	-3.6932e-07
-0.145	7.59e-12	-1.623e-11	2.95e-12	3.5982e-07	-3.5984e-07	4.0419e-10	-2.869e-11	-1.3282e-10	3.597e-07	-3.6006e-07	8.6931e-10	-7.813e-11	-1.645e-10	3.5946e-07	-3.6004e-07	1.8044e-09	-1.7193e-10	-2.1265e-10	3.5958e-07	-3.6098e-07	3.6138e-09	-3.3593e-10	-2.5693e-10	3.5962e-07	-3.6248e-07	6.4178e-09	-5.9555e-10	-3.105e-10	3.5962e-07	-3.6514e-07	1.10194e-08	-9.6759e-10	-3.6673e-10	3.5974e-07	-3.6944e-07
-0.14	1.254e-11	-9.34e-12	1.28e-12	3.5992e-07	-3.5976e-07	4.2522e-10	-2.93e-11	-1.5427e-10	3.598e-07	-3.5996e-07	8.9592e-10	-7.576e-11	-1.9556e-10	3.5948e-07	-3.6008e-07	1.8397e-09	-1.7019e-10	-2.4319e-10	3.5956e-07	-3.6098e-07	3.6298e-09	-3.3148e-10	-3.0236e-10	3.5958e-07	-3.6246e-07	6.4842e-09	-5.8072e-10	-3.652e-10	3.5964e-07	-3.6498e-07	1.1095e-08	-9.4784e-10	-4.2963e-10	3.597e-07	-3.6936e-07
-0.135	9.27e-12	-8.36e-12	-3.01e-12	3.599e-07	-3.5986e-07	4.4126e-10	-2.405e-11	-1.8193e-10	3.5976e-07	-3.5992e-07	9.2344e-10	-7.507e-11	-2.2847e-10	3.595e-07	-3.6008e-07	1.8613e-09	-1.6494e-10	-2.839e-10	3.5948e-07	-3.6094e-07	3.6783e-09	-3.2211e-10	-3.5254e-10	3.5966e-07	-3.6254e-07	6.4333e-09	-5.7426e-10	-4.2785e-10	3.5962e-07	-3.6502e-07	1.10086e-08	-9.269e-10	-5.0205e-10	3.5976e-07	-3.692e-07
-0.13	2.2e-12	-4.55e-12	-7.8e-12	3.5986e-07	-3.599e-07	4.6098e-10	-2.808e-11	-2.1171e-10	3.5972e-07	-3.599e-07	9.6246e-10	-7.208e-11	-2.6472e-10	3.5952e-07	-3.6006e-07	1.9072e-09	-1.628e-10	-3.3162e-10	3.5948e-07	-3.6108e-07	3.6218e-09	-3.1871e-10	-4.1321e-10	3.5962e-07	-3.624e-07	6.5299e-09	-5.5844e-10	-4.9928e-10	3.5952e-07	-3.6492e-07	1.10554e-08	-9.1838e-10	-5.8595e-10	3.5968e-07	-3.6926e-07
-0.125	1.668e-11	-3.36e-12	-9.61e-12	3.598e-07	-3.5982e-07	5.1754e-10	-2.292e-11	-2.4764e-10	3.5982e-07	-3.5998e-07	1.00645e-09	-7.2e-11	-3.1121e-10	3.5954e-07	-3.6002e-07	1.9582e-09	-1.5677e-10	-3.8636e-10	3.5974e-07	-3.6114e-07	3.7053e-09	-3.133e-10	-4.7961e-10	3.5956e-07	-3.6242e-07	6.5286e-09	-5.5137e-10	-5.857e-10	3.5958e-07	-3.6496e-07	1.11768e-08	-8.9907e-10	-6.828e-10	3.597e-07	-3.6924e-07
-0.12	1.3e-11	-8.57e-12	-6.54e-12	3.5988e-07	-3.599e-07	5.4668e-10	-2.536e-11	-2.8931e-10	3.5984e-07	-3.601e-07	1.04765e-09	-6.775e-11	-3.6227e-10	3.5944e-07	-3.601e-07	2.0159e-09	-1.5162e-10	-4.5387e-10	3.5984e-07	-3.6118e-07	3.7739e-09	-3.0927e-10	-5.5824e-10	3.5952e-07	-3.6236e-07	6.661e-09	-5.3672e-10	-6.7974e-10	3.5956e-07	-3.6506e-07	1.1223e-08	-8.8933e-10	-7.9598e-10	3.5968e-07	-3.6932e-07
-0.115	1.295e-11	-2.22e-12	-6.1e-12	3.5982e-07	-3.5974e-07	5.9441e-10	-2.13e-11	-3.3888e-10	3.598e-07	-3.6e-07	1.11872e-09	-6.474e-11	-4.2691e-10	3.5952e-07	-3.6006e-07	2.1026e-09	-1.4612e-10	-5.3136e-10	3.5976e-07	-3.6102e-07	3.9024e-09	-3.0255e-10	-6.5331e-10	3.5952e-07	-3.6236e-07	6.7817e-09	-5.3019e-10	-7.9675e-10	3.5952e-07	-3.6498e-07	1.1361e-08	-8.6927e-10	-9.3666e-10	3.597e-07	-3.6914e-07
-0.11	8.1e-12	-3.14e-12	-1.051e-11	3.5984e-07	-3.5978e-07	6.6731e-10	-1.894e-11	-3.9786e-10	3.5972e-07	-3.599e-07	1.1821e-09	-6.205e-11	-5.0006e-10	3.5956e-07	-3.6014e-07	2.1773e-09	-1.4329e-10	-6.2529e-10	3.5976e-07	-3.6112e-07	4.0208e-09	-2.9064e-10	-7.6401e-10	3.595e-07	-3.6252e-07	6.8769e-09	-5.1882e-10	-9.2798e-10	3.595e-07	-3.6498e-07	1.15018e-08	-8.5688e-10	-1.09175e-09	3.5968e-07	-3.6924e-07
-0.105	1.486e-11	2.41e-12	-1.615e-11	3.5988e-07	-3.599e-07	7.0674e-10	-1.996e-11	-4.6467e-10	3.5982e-07	-3.5992e-07	1.2724e-09	-5.908e-11	-5.8592e-10	3.5946e-07	-3.6008e-07	2.2816e-09	-1.4221e-10	-7.2606e-10	3.5968e-07	-3.6102e-07	4.1075e-09	-2.8271e-10	-8.9435e-10	3.5956e-07	-3.6254e-07	7.048e-09	-5.0804e-10	-1.08412e-09	3.596e-07	-3.6496e-07	1.17946e-08	-8.3757e-10	-1.2669e-09	3.597e-07	-3.6936e-07
-0.1	2.006e-11	3.11e-12	-2.328e-11	3.5986e-07	-3.5984e-07	7.855e-10	-1.411e-11	-5.4395e-10	3.5974e-07	-3.5992e-07	1.3588e-09	-5.889e-11	-6.8369e-10	3.5954e-07	-3.6008e-07	2.396e-09	-1.3718e-10	-8.4838e-10	3.598e-07	-3.6106e-07	4.2666e-09	-2.7329e-10	-1.04501e-09	3.5952e-07	-3.624e-07	7.1826e-09	-5.0196e-10	-1.2663e-09	3.5958e-07	-3.6506e-07	1.1875e-08	-8.3325e-10	-1.4728e-09	3.5974e-07	-3.6928e-07
-0.095	1.393e-11	2.02e-12	-2.434e-11	3.5978e-07	-3.5966e-07	8.7088e-10	-1.887e-11	-6.3504e-10	3.5972e-07	-3.5986e-07	1.5302e-09	-5.418e-11	-7.9914e-10	3.5948e-07	-3.6006e-07	2.538e-09	-1.3468e-10	-9.9002e-10	3.597e-07	-3.6108e-07	4.4595e-09	-2.6863e-10	-1.2203e-09	3.5954e-07	-3.6248e-07	7.3805e-09	-4.8928e-10	-1.4812e-09	3.5968e-07	-3.65e-07	1.20862e-08	-8.1794e-10	-1.7238e-09	3.5952e-07	-3.6916e-07
-0.09	3.218e-11	-5.02e-12	-2.173e-11	3.5974e-07	-3.5964e-07	9.854e-10	-1.385e-11	-7.4067e-10	3.5976e-07	-3.5996e-07	1.6533e-09	-5.504e-11	-9.3378e-10	3.5944e-07	-3.601e-07	2.7067e-09	-1.2956e-10	-1.1603e-09	3.5982e-07	-3.6108e-07	4.6999e-09	-2.7003e-10	-1.428e-09	3.5954e-07	-3.6246e-07	7.7519e-09	-4.825e-10	-1.7344e-09	3.5952e-07	-3.6498e-07	1.24806e-08	-7.9951e-10	-2.0224e-09	3.5962e-07	-3.6914e-07
-0.085	3.224e-11	-1.145e-11	-2.033e-11	3.598e-07	-3.5962e-07	1.12723e-09	-1.688e-11	-8.6744e-10	3.597e-07	-3.5988e-07	1.7893e-09	-5.015e-11	-1.09254e-09	3.595e-07	-3.6014e-07	2.8995e-09	-1.2664e-10	-1.3559e-09	3.5974e-07	-3.6106e-07	4.8766e-09	-2.5939e-10	-1.6605e-09	3.5964e-07	-3.6252e-07	8.0344e-09	-4.7097e-10	-2.0194e-09	3.5964e-07	-3.6494e-07	1.2694e-08	-7.8744e-10	-2.3555e-09	3.597e-07	-3.692e-07
-0.08	3.188e-11	-2.91e-12	-1.954e-11	3.5982e-07	-3.5976e-07	1.2671e-09	-1.061e-11	-1.0152e-09	3.5984e-07	-3.5996e-07	1.9438e-09	-5.135e-11	-1.2663e-09	3.5952e-07	-3.6e-07	3.1101e-09	-1.2293e-10	-1.5838e-09	3.5974e-07	-3.6108e-07	5.168e-09	-2.4816e-10	-1.9406e-09	3.5958e-07	-3.6252e-07	8.3278e-09	-4.648e-10	-2.3658e-09	3.596e-07	-3.6498e-07	1.30482e-08	-7.7189e-10	-2.7591e-09	3.5968e-07	-3.6922e-07
-0.075	2.152e-11	-4.58e-12	-2.611e-11	3.5988e-07	-3.5984e-07	1.4255e-09	-1.178e-11	-1.1767e-09	3.5976e-07	-3.5998e-07	2.1822e-09	-4.526e-11	-1.4785e-09	3.5952e-07	-3.6008e-07	3.3856e-09	-1.1962e-10	-1.8474e-09	3.5974e-07	-3.6114e-07	5.5069e-09	-2.4059e-10	-2.2814e-09	3.5956e-07	-3.6248e-07	8.7188e-09	-4.5206e-10	-2.751e-09	3.5966e-07	-3.6514e-07	1.35058e-08	-7.6455e-10	-3.2284e-09	3.5966e-07	-3.6914e-07
-0.07	3.305e-11	3.42e-12	-3.474e-11	3.5988e-07	-3.5986e-07	1.6176e-09	-1.398e-11	-1.3762e-09	3.5984e-07	-3.5992e-07	2.4246e-09	-4.61e-11	-1.7327e-09	3.5946e-07	-3.6012e-07	3.6992e-09	-1.1718e-10	-2.1673e-09	3.598e-07	-3.611e-07	5.8845e-09	-2.3762e-10	-2.6481e-09	3.5944e-07	-3.6248e-07	9.1935e-09	-4.4472e-10	-3.2154e-09	3.5966e-07	-3.651e-07	1.40624e-08	-7.4254e-10	-3.7746e-09	3.5968e-07	-3.6922e-07
-0.065	4.039e-11	4.5e-12	-4.091e-11	3.5982e-07	-3.5986e-07	1.8558e-09	-1.297e-11	-1.61e-09	3.5952e-07	-3.5974e-07	2.716e-09	-4.413e-11	-2.0187e-09	3.5944e-07	-3.6e-07	4.0595e-09	-1.1126e-10	-2.5327e-09	3.5974e-07	-3.6106e-07	6.288e-09	-2.3265e-10	-3.0855e-09	3.5958e-07	-3.6246e-07	9.6979e-09	-4.3576e-10	-3.7588e-09	3.5956e-07	-3.6504e-07	1.46276e-08	-7.341e-10	-4.3882e-09	3.5976e-07	-3.6926e-07
-0.06	3.525e-11	-5.4e-13	-4.348e-11	3.5988e-07	-3.5978e-07	2.1284e-09	-1.107e-11	-1.8733e-09	3.5958e-07	-3.5976e-07	3.0534e-09	-4.323e-11	-2.3545e-09	3.594e-07	-3.6006e-07	4.5507e-09	-1.0766e-10	-2.956e-09	3.5976e-07	-3.6114e-07	6.8096e-09	-2.3047e-10	-3.6142e-09	3.595e-07	-3.6246e-07	1.0316e-08	-4.2575e-10	-4.3857e-09	3.5952e-07	-3.6502e-07	1.5356e-08	-7.2058e-10	-5.1447e-09	3.5966e-07	-3.6908e-07
