Vg	Id,Vd=0V	Ig,Vd=0V	Is,Vd=0V	Iavdd,Vd=0V	Ignd,Vd=0V	Id,Vd=0.15V	Ig,Vd=0.15V	Is,Vd=0.15V	Iavdd,Vd=0.15V	Ignd,Vd=0.15V	Id,Vd=0.3V	Ig,Vd=0.3V	Is,Vd=0.3V	Iavdd,Vd=0.3V	Ignd,Vd=0.3V	Id,Vd=0.45V	Ig,Vd=0.45V	Is,Vd=0.45V	Iavdd,Vd=0.45V	Ignd,Vd=0.45V	Id,Vd=0.6V	Ig,Vd=0.6V	Is,Vd=0.6V	Iavdd,Vd=0.6V	Ignd,Vd=0.6V	Id,Vd=0.75V	Ig,Vd=0.75V	Is,Vd=0.75V	Iavdd,Vd=0.75V	Ignd,Vd=0.75V	Id,Vd=0.9V	Ig,Vd=0.9V	Is,Vd=0.9V	Iavdd,Vd=0.9V	Ignd,Vd=0.9V
-0.3	3.8239e-10	-6.8703e-10	2.9304e-10	3.1246e-07	-3.1232e-07	1.046e-09	-1.3316e-09	2.8472e-10	3.1234e-07	-3.1234e-07	2.1653e-09	-2.3946e-09	2.3547e-10	3.122e-07	-3.1226e-07	3.856e-09	-3.9532e-09	1.11e-10	3.1242e-07	-3.1232e-07	6.2835e-09	-6.1264e-09	-1.6261e-10	3.125e-07	-3.123e-07	9.7602e-09	-9.0289e-09	-7.0223e-10	3.128e-07	-3.126e-07	1.44598e-08	-1.2718e-08	-1.6884e-09	3.1272e-07	-3.129e-07
-0.295	3.6286e-10	-6.5848e-10	2.8069e-10	3.124e-07	-3.1232e-07	1.0155e-09	-1.2903e-09	2.7156e-10	3.1222e-07	-3.1218e-07	2.1075e-09	-2.3314e-09	2.2341e-10	3.1206e-07	-3.1222e-07	3.7638e-09	-3.8758e-09	9.49e-11	3.1222e-07	-3.1242e-07	6.1934e-09	-6.0331e-09	-1.9599e-10	3.1252e-07	-3.1254e-07	9.589e-09	-8.8876e-09	-7.1831e-10	3.1252e-07	-3.1268e-07	1.42776e-08	-1.25592e-08	-1.7213e-09	3.1264e-07	-3.1266e-07
-0.29	3.5129e-10	-6.3044e-10	2.704e-10	3.124e-07	-3.1234e-07	9.8092e-10	-1.2506e-09	2.588e-10	3.123e-07	-3.1212e-07	2.0639e-09	-2.2752e-09	2.1009e-10	3.1202e-07	-3.121e-07	3.7057e-09	-3.7895e-09	8.185e-11	3.1238e-07	-3.1226e-07	6.1205e-09	-5.9311e-09	-1.9703e-10	3.123e-07	-3.1244e-07	9.4834e-09	-8.7552e-09	-7.3308e-10	3.1268e-07	-3.1254e-07	1.41498e-08	-1.23864e-08	-1.8428e-09	3.1268e-07	-3.1266e-07
-0.285	3.3766e-10	-6.0541e-10	2.5995e-10	3.1252e-07	-3.1226e-07	9.5287e-10	-1.211e-09	2.4778e-10	3.123e-07	-3.123e-07	2.0174e-09	-2.2217e-09	1.9703e-10	3.121e-07	-3.1208e-07	3.6488e-09	-3.7201e-09	6.711e-11	3.1216e-07	-3.1212e-07	6.0247e-09	-5.8282e-09	-2.1048e-10	3.1232e-07	-3.1224e-07	9.3566e-09	-8.6211e-09	-7.4714e-10	3.1244e-07	-3.1262e-07	1.40004e-08	-1.2253e-08	-1.7447e-09	3.1268e-07	-3.127e-07
-0.28	3.1892e-10	-5.8226e-10	2.4893e-10	3.1224e-07	-3.1228e-07	9.2543e-10	-1.1716e-09	2.3801e-10	3.1224e-07	-3.1214e-07	1.9768e-09	-2.1664e-09	1.8629e-10	3.121e-07	-3.1202e-07	3.5839e-09	-3.643e-09	5.291e-11	3.1232e-07	-3.1234e-07	5.9395e-09	-5.7156e-09	-2.24e-10	3.123e-07	-3.1222e-07	9.245e-09	-8.5004e-09	-7.6639e-10	3.1264e-07	-3.126e-07	1.38456e-08	-1.20488e-08	-1.7788e-09	3.1258e-07	-3.126e-07
-0.275	3.0479e-10	-5.5575e-10	2.3833e-10	3.1246e-07	-3.1238e-07	9.0028e-10	-1.134e-09	2.2596e-10	3.124e-07	-3.123e-07	1.9358e-09	-2.1119e-09	1.7212e-10	3.121e-07	-3.1206e-07	3.5317e-09	-3.5723e-09	3.829e-11	3.121e-07	-3.1206e-07	5.8691e-09	-5.6311e-09	-2.3993e-10	3.1222e-07	-3.1224e-07	9.1547e-09	-8.369e-09	-7.8223e-10	3.1268e-07	-3.1262e-07	1.37148e-08	-1.19262e-08	-1.7777e-09	3.127e-07	-3.126e-07
-0.27	2.9793e-10	-5.3181e-10	2.2769e-10	3.125e-07	-3.124e-07	8.7077e-10	-1.0973e-09	2.1706e-10	3.1206e-07	-3.1226e-07	1.8931e-09	-2.0582e-09	1.5983e-10	3.121e-07	-3.1226e-07	3.4681e-09	-3.4942e-09	2.513e-11	3.1228e-07	-3.123e-07	5.7723e-09	-5.5194e-09	-2.5474e-10	3.1228e-07	-3.122e-07	9.045e-09	-8.2488e-09	-7.9608e-10	3.1256e-07	-3.1242e-07	1.35812e-08	-1.17488e-08	-1.8031e-09	3.1274e-07	-3.127e-07
-0.265	2.8588e-10	-5.1165e-10	2.1775e-10	3.1238e-07	-3.1222e-07	8.4743e-10	-1.0613e-09	2.0741e-10	3.1208e-07	-3.1206e-07	1.8529e-09	-2.0121e-09	1.4797e-10	3.1228e-07	-3.122e-07	3.4166e-09	-3.4213e-09	1.357e-11	3.1224e-07	-3.123e-07	5.7128e-09	-5.4295e-09	-2.6328e-10	3.1244e-07	-3.1248e-07	9.0047e-09	-8.1328e-09	-8.7745e-10	3.1242e-07	-3.1234e-07	1.34468e-08	-1.15822e-08	-1.8163e-09	3.1256e-07	-3.1264e-07
-0.26	2.7454e-10	-4.8904e-10	2.0835e-10	3.125e-07	-3.1238e-07	8.2507e-10	-1.0279e-09	1.977e-10	3.1212e-07	-3.1226e-07	1.8153e-09	-1.9584e-09	1.3789e-10	3.1204e-07	-3.1204e-07	3.3519e-09	-3.3523e-09	2.4e-13	3.121e-07	-3.121e-07	5.6162e-09	-5.33e-09	-2.843e-10	3.122e-07	-3.1224e-07	8.8249e-09	-7.9849e-09	-8.2902e-10	3.1244e-07	-3.1242e-07	1.33052e-08	-1.14366e-08	-1.8223e-09	3.1258e-07	-3.125e-07
-0.255	2.6426e-10	-4.6758e-10	2.0181e-10	3.124e-07	-3.1248e-07	8.0046e-10	-9.9337e-10	1.8865e-10	3.1228e-07	-3.1212e-07	1.7769e-09	-1.9103e-09	1.2095e-10	3.1204e-07	-3.1222e-07	3.2916e-09	-3.2866e-09	-1.202e-11	3.1228e-07	-3.1214e-07	5.5523e-09	-5.2501e-09	-2.98e-10	3.122e-07	-3.1228e-07	8.7197e-09	-7.8837e-09	-8.4204e-10	3.1238e-07	-3.1244e-07	1.31982e-08	-1.12808e-08	-1.8384e-09	3.1266e-07	-3.1266e-07
-0.25	2.5172e-10	-4.474e-10	1.9287e-10	3.123e-07	-3.125e-07	7.7474e-10	-9.5946e-10	1.788e-10	3.1212e-07	-3.1224e-07	1.7365e-09	-1.8604e-09	1.1682e-10	3.121e-07	-3.122e-07	3.2383e-09	-3.2144e-09	-2.51e-11	3.1226e-07	-3.1212e-07	5.4691e-09	-5.1598e-09	-3.1172e-10	3.1232e-07	-3.1236e-07	8.6085e-09	-7.7476e-09	-8.6017e-10	3.1256e-07	-3.1232e-07	1.3e-08	-1.11392e-08	-1.8503e-09	3.1254e-07	-3.1268e-07
-0.245	2.4045e-10	-4.2636e-10	1.8495e-10	3.1244e-07	-3.125e-07	7.5399e-10	-9.2779e-10	1.7031e-10	3.1234e-07	-3.1228e-07	1.7063e-09	-1.8129e-09	1.0665e-10	3.1226e-07	-3.1224e-07	3.1792e-09	-3.1432e-09	-3.79e-11	3.1212e-07	-3.1212e-07	5.3892e-09	-5.0601e-09	-3.2404e-10	3.122e-07	-3.1224e-07	8.5006e-09	-7.6338e-09	-8.6817e-10	3.1254e-07	-3.1244e-07	1.2879e-08	-1.09986e-08	-1.8617e-09	3.1246e-07	-3.1264e-07
-0.24	2.2982e-10	-4.071e-10	1.7626e-10	3.1224e-07	-3.122e-07	7.3714e-10	-8.9551e-10	1.6156e-10	3.1228e-07	-3.12e-07	1.6692e-09	-1.7638e-09	9.503e-11	3.1228e-07	-3.1222e-07	3.1418e-09	-3.0851e-09	-5.043e-11	3.1224e-07	-3.1222e-07	5.3116e-09	-4.9692e-09	-3.3435e-10	3.1222e-07	-3.122e-07	8.4142e-09	-7.5138e-09	-8.8074e-10	3.1224e-07	-3.1226e-07	1.27566e-08	-1.08382e-08	-1.8773e-09	3.1262e-07	-3.1248e-07
-0.235	2.2493e-10	-3.8954e-10	1.6888e-10	3.1246e-07	-3.1224e-07	7.12e-10	-8.6491e-10	1.5327e-10	3.121e-07	-3.1214e-07	1.6394e-09	-1.7182e-09	8.522e-11	3.121e-07	-3.1208e-07	3.068e-09	-3.0142e-09	-6.304e-11	3.1206e-07	-3.1228e-07	5.2323e-09	-4.8704e-09	-3.4966e-10	3.1218e-07	-3.1218e-07	8.3286e-09	-7.4168e-09	-8.9836e-10	3.1244e-07	-3.123e-07	1.26188e-08	-1.07008e-08	-1.9e-09	3.1246e-07	-3.126e-07
-0.23	2.1537e-10	-3.7228e-10	1.6031e-10	3.1244e-07	-3.1248e-07	6.9148e-10	-8.3517e-10	1.446e-10	3.1228e-07	-3.1226e-07	1.6004e-09	-1.6733e-09	7.43e-11	3.1228e-07	-3.1198e-07	3.0241e-09	-2.9479e-09	-7.117e-11	3.1226e-07	-3.1218e-07	5.1583e-09	-4.7945e-09	-3.6375e-10	3.122e-07	-3.122e-07	8.2077e-09	-7.3056e-09	-9.0721e-10	3.1232e-07	-3.1254e-07	1.2607e-08	-1.05554e-08	-2.0078e-09	3.1262e-07	-3.124e-07
-0.225	2.0297e-10	-3.5448e-10	1.5167e-10	3.125e-07	-3.1248e-07	6.6963e-10	-8.0505e-10	1.3665e-10	3.1214e-07	-3.1224e-07	1.5635e-09	-1.6286e-09	6.647e-11	3.1202e-07	-3.1208e-07	2.978e-09	-2.887e-09	-8.443e-11	3.1232e-07	-3.12e-07	5.0819e-09	-4.7013e-09	-3.7829e-10	3.1214e-07	-3.1222e-07	8.1068e-09	-7.1779e-09	-9.2687e-10	3.1228e-07	-3.1224e-07	1.23396e-08	-1.0428e-08	-1.9181e-09	3.124e-07	-3.1256e-07
-0.22	1.9409e-10	-3.3712e-10	1.4626e-10	3.1246e-07	-3.1242e-07	6.5221e-10	-7.7471e-10	1.2806e-10	3.1216e-07	-3.123e-07	1.533e-09	-1.5864e-09	5.493e-11	3.1206e-07	-3.122e-07	2.9181e-09	-2.8252e-09	-9.307e-11	3.1216e-07	-3.1222e-07	5.0014e-09	-4.6191e-09	-3.8928e-10	3.1222e-07	-3.1244e-07	8.0282e-09	-7.0705e-09	-9.3745e-10	3.123e-07	-3.1244e-07	1.22356e-08	-1.0283e-08	-1.9414e-09	3.1262e-07	-3.1242e-07
-0.215	1.8723e-10	-3.2044e-10	1.3909e-10	3.1232e-07	-3.1226e-07	6.325e-10	-7.4916e-10	1.2002e-10	3.1228e-07	-3.1212e-07	1.4932e-09	-1.5439e-09	4.708e-11	3.122e-07	-3.122e-07	2.8685e-09	-2.7652e-09	-1.0483e-10	3.1216e-07	-3.1218e-07	4.9285e-09	-4.5445e-09	-3.9868e-10	3.1224e-07	-3.122e-07	7.9331e-09	-6.9747e-09	-9.5106e-10	3.1228e-07	-3.1218e-07	1.21026e-08	-1.0134e-08	-1.9473e-09	3.1234e-07	-3.1252e-07
-0.21	1.7538e-10	-3.058e-10	1.321e-10	3.122e-07	-3.1226e-07	6.1081e-10	-7.2041e-10	1.1419e-10	3.1206e-07	-3.1206e-07	1.4613e-09	-1.5025e-09	3.718e-11	3.1208e-07	-3.1208e-07	2.8278e-09	-2.7084e-09	-1.1735e-10	3.1208e-07	-3.1196e-07	4.8755e-09	-4.4609e-09	-4.2443e-10	3.1242e-07	-3.1236e-07	7.8293e-09	-6.8694e-09	-9.6595e-10	3.122e-07	-3.1222e-07	1.19808e-08	-9.9856e-09	-1.9545e-09	3.1256e-07	-3.124e-07
-0.205	1.6688e-10	-2.9108e-10	1.2568e-10	3.1246e-07	-3.1244e-07	5.9707e-10	-6.9468e-10	1.06e-10	3.1208e-07	-3.1226e-07	1.4253e-09	-1.4577e-09	3.152e-11	3.1208e-07	-3.1224e-07	2.7812e-09	-2.6462e-09	-1.2767e-10	3.1234e-07	-3.1206e-07	4.7983e-09	-4.3832e-09	-4.2263e-10	3.1234e-07	-3.1232e-07	7.742e-09	-6.761e-09	-9.8139e-10	3.1238e-07	-3.1226e-07	1.18678e-08	-9.8752e-09	-1.9764e-09	3.1232e-07	-3.1244e-07
-0.2	1.6295e-10	-2.7612e-10	1.1869e-10	3.123e-07	-3.1226e-07	5.749e-10	-6.6952e-10	9.822e-11	3.121e-07	-3.1224e-07	1.4019e-09	-1.4191e-09	2.025e-11	3.1216e-07	-3.121e-07	2.7345e-09	-2.5912e-09	-1.3514e-10	3.1224e-07	-3.1224e-07	4.7348e-09	-4.3008e-09	-4.3453e-10	3.122e-07	-3.1212e-07	7.6421e-09	-6.6582e-09	-9.9717e-10	3.1216e-07	-3.1216e-07	1.17616e-08	-9.717e-09	-1.9797e-09	3.1232e-07	-3.1232e-07
-0.195	1.5082e-10	-2.6266e-10	1.1196e-10	3.1238e-07	-3.1244e-07	5.5666e-10	-6.4479e-10	9.324e-11	3.1204e-07	-3.1232e-07	1.363e-09	-1.3799e-09	1.078e-11	3.121e-07	-3.1224e-07	2.6904e-09	-2.5359e-09	-1.4557e-10	3.1202e-07	-3.1206e-07	4.6737e-09	-4.2219e-09	-4.452e-10	3.124e-07	-3.1212e-07	7.5465e-09	-6.5374e-09	-1.00416e-09	3.1222e-07	-3.1222e-07	1.16148e-08	-9.5936e-09	-2.0046e-09	3.1228e-07	-3.1228e-07
-0.19	1.4452e-10	-2.4801e-10	1.0565e-10	3.1222e-07	-3.1222e-07	5.3981e-10	-6.1929e-10	8.616e-11	3.1226e-07	-3.123e-07	1.3351e-09	-1.3423e-09	2.82e-12	3.1206e-07	-3.1218e-07	2.639e-09	-2.4741e-09	-1.5667e-10	3.1222e-07	-3.1196e-07	4.5962e-09	-4.1361e-09	-4.5821e-10	3.1228e-07	-3.1232e-07	7.4547e-09	-6.4525e-09	-1.01952e-09	3.123e-07	-3.1236e-07	1.15222e-08	-9.4811e-09	-2.0167e-09	3.123e-07	-3.1238e-07
-0.185	1.3413e-10	-2.3655e-10	1.0166e-10	3.1224e-07	-3.122e-07	5.2495e-10	-5.9614e-10	7.842e-11	3.1226e-07	-3.1208e-07	1.3122e-09	-1.3032e-09	-5.95e-12	3.1228e-07	-3.1196e-07	2.5954e-09	-2.4188e-09	-1.6774e-10	3.121e-07	-3.1226e-07	4.5361e-09	-4.0602e-09	-4.7991e-10	3.1234e-07	-3.1212e-07	7.3859e-09	-6.3516e-09	-1.031e-09	3.122e-07	-3.1216e-07	1.1405e-08	-9.3541e-09	-2.0172e-09	3.1232e-07	-3.1224e-07
-0.18	1.3026e-10	-2.2399e-10	9.527e-11	3.125e-07	-3.1234e-07	5.0472e-10	-5.7351e-10	7.09e-11	3.1202e-07	-3.1226e-07	1.2857e-09	-1.2656e-09	-1.445e-11	3.1208e-07	-3.1206e-07	2.5469e-09	-2.3689e-09	-1.7733e-10	3.1208e-07	-3.1226e-07	4.4804e-09	-3.9909e-09	-4.8349e-10	3.122e-07	-3.123e-07	7.2914e-09	-6.2376e-09	-1.06545e-09	3.1218e-07	-3.1226e-07	1.1277e-08	-9.2057e-09	-2.0467e-09	3.1232e-07	-3.1246e-07
-0.175	1.1843e-10	-2.1076e-10	9.026e-11	3.1228e-07	-3.122e-07	4.8841e-10	-5.5022e-10	6.668e-11	3.1226e-07	-3.122e-07	1.2578e-09	-1.2303e-09	-2.273e-11	3.1224e-07	-3.1226e-07	2.5033e-09	-2.3175e-09	-1.9052e-10	3.1206e-07	-3.121e-07	4.4212e-09	-3.9092e-09	-4.9615e-10	3.1218e-07	-3.1208e-07	7.2077e-09	-6.1569e-09	-1.06519e-09	3.1236e-07	-3.124e-07	1.11688e-08	-9.0992e-09	-2.0669e-09	3.1224e-07	-3.1226e-07
-0.17	1.1066e-10	-1.9927e-10	8.614e-11	3.1244e-07	-3.1244e-07	4.7507e-10	-5.2854e-10	5.908e-11	3.1214e-07	-3.123e-07	1.2303e-09	-1.1924e-09	-2.875e-11	3.122e-07	-3.1196e-07	2.4588e-09	-2.2591e-09	-1.9435e-10	3.1224e-07	-3.12e-07	4.3558e-09	-3.8356e-09	-5.1821e-10	3.1206e-07	-3.1228e-07	7.1244e-09	-6.0517e-09	-1.08743e-09	3.1234e-07	-3.1214e-07	1.10748e-08	-8.9734e-09	-2.0837e-09	3.1226e-07	-3.122e-07
-0.165	1.0571e-10	-1.8775e-10	7.995e-11	3.1238e-07	-3.1244e-07	4.5471e-10	-5.0821e-10	5.198e-11	3.1214e-07	-3.1216e-07	1.21e-09	-1.1601e-09	-4.024e-11	3.1222e-07	-3.1222e-07	2.4191e-09	-2.2127e-09	-2.1201e-10	3.122e-07	-3.1226e-07	4.3016e-09	-3.7709e-09	-5.3048e-10	3.1234e-07	-3.1226e-07	7.0641e-09	-5.9583e-09	-1.10249e-09	3.1216e-07	-3.1234e-07	1.09312e-08	-8.8156e-09	-2.1023e-09	3.1228e-07	-3.1222e-07
-0.16	9.856e-11	-1.774e-10	7.487e-11	3.1244e-07	-3.1214e-07	4.4287e-10	-4.8561e-10	4.653e-11	3.1228e-07	-3.1212e-07	1.1824e-09	-1.1265e-09	-5.509e-11	3.1216e-07	-3.1196e-07	2.3849e-09	-2.1644e-09	-2.2477e-10	3.1228e-07	-3.1218e-07	4.2435e-09	-3.6996e-09	-5.4376e-10	3.1226e-07	-3.123e-07	6.9678e-09	-5.8492e-09	-1.11282e-09	3.1232e-07	-3.1234e-07	1.08686e-08	-8.7305e-09	-2.1229e-09	3.1232e-07	-3.1224e-07
-0.155	9.064e-11	-1.6755e-10	6.938e-11	3.122e-07	-3.1226e-07	4.2784e-10	-4.6569e-10	3.986e-11	3.122e-07	-3.1214e-07	1.1579e-09	-1.0919e-09	-5.95e-11	3.1206e-07	-3.1218e-07	2.3462e-09	-2.1103e-09	-2.3514e-10	3.1218e-07	-3.12e-07	4.1901e-09	-3.6313e-09	-5.5485e-10	3.1216e-07	-3.1208e-07	6.9204e-09	-5.7692e-09	-1.13605e-09	3.122e-07	-3.1236e-07	1.07732e-08	-8.6052e-09	-2.1484e-09	3.1234e-07	-3.1226e-07
-0.15	8.531e-11	-1.5633e-10	6.769e-11	3.1222e-07	-3.1214e-07	4.1523e-10	-4.4723e-10	3.308e-11	3.1208e-07	-3.1204e-07	1.1321e-09	-1.0567e-09	-6.822e-11	3.1224e-07	-3.1224e-07	2.3128e-09	-2.0645e-09	-2.4829e-10	3.1204e-07	-3.1214e-07	4.1234e-09	-3.558e-09	-5.7363e-10	3.1232e-07	-3.1232e-07	6.8236e-09	-5.6623e-09	-1.1629e-09	3.1232e-07	-3.1214e-07	1.06766e-08	-8.4641e-09	-2.1561e-09	3.1246e-07	-3.1238e-07
-0.145	8.396e-11	-1.4852e-10	6.178e-11	3.122e-07	-3.1218e-07	4.0034e-10	-4.2923e-10	2.528e-11	3.1222e-07	-3.122e-07	1.115e-09	-1.026e-09	-8.108e-11	3.1202e-07	-3.1222e-07	2.2803e-09	-2.0126e-09	-2.6445e-10	3.1212e-07	-3.1224e-07	4.084e-09	-3.4985e-09	-5.9686e-10	3.1212e-07	-3.1228e-07	6.7622e-09	-5.5828e-09	-1.1857e-09	3.1214e-07	-3.123e-07	1.05926e-08	-8.3406e-09	-2.2114e-09	3.1232e-07	-3.1232e-07
-0.14	7.332e-11	-1.3963e-10	5.906e-11	3.124e-07	-3.1244e-07	3.8791e-10	-4.1009e-10	1.967e-11	3.12e-07	-3.12e-07	1.0896e-09	-9.963e-10	-9.126e-11	3.1222e-07	-3.1208e-07	2.2688e-09	-1.9657e-09	-2.7811e-10	3.1196e-07	-3.1218e-07	4.0276e-09	-3.4228e-09	-6.0865e-10	3.1232e-07	-3.1222e-07	6.6961e-09	-5.4964e-09	-1.2062e-09	3.1228e-07	-3.1214e-07	1.04772e-08	-8.2234e-09	-2.2328e-09	3.1234e-07	-3.1232e-07
-0.135	7.334e-11	-1.2981e-10	5.599e-11	3.1248e-07	-3.1244e-07	3.8303e-10	-3.9291e-10	1.113e-11	3.123e-07	-3.1206e-07	1.0768e-09	-9.6494e-10	-1.0311e-10	3.12e-07	-3.1196e-07	2.2208e-09	-1.9206e-09	-2.9164e-10	3.1222e-07	-3.1202e-07	3.9917e-09	-3.3617e-09	-6.3266e-10	3.1232e-07	-3.123e-07	6.6365e-09	-5.4079e-09	-1.231e-09	3.1238e-07	-3.1232e-07	1.04236e-08	-8.1323e-09	-2.2707e-09	3.1238e-07	-3.1216e-07
-0.13	6.799e-11	-1.2089e-10	5.193e-11	3.1244e-07	-3.1222e-07	3.6971e-10	-3.7607e-10	3.86e-12	3.1226e-07	-3.1224e-07	1.048e-09	-9.3667e-10	-1.1496e-10	3.1202e-07	-3.1218e-07	2.1973e-09	-1.8768e-09	-3.1549e-10	3.1204e-07	-3.1206e-07	3.9457e-09	-3.2983e-09	-6.608e-10	3.1226e-07	-3.123e-07	6.5792e-09	-5.3189e-09	-1.259e-09	3.1234e-07	-3.1236e-07	1.02978e-08	-8.0012e-09	-2.3094e-09	3.1218e-07	-3.1238e-07
-0.125	6.204e-11	-1.1276e-10	4.807e-11	3.1206e-07	-3.1218e-07	3.6308e-10	-3.593e-10	-3.89e-12	3.1226e-07	-3.1202e-07	1.0314e-09	-9.0582e-10	-1.2852e-10	3.1214e-07	-3.1198e-07	2.1843e-09	-1.8344e-09	-3.4868e-10	3.1198e-07	-3.122e-07	3.9126e-09	-3.2271e-09	-6.8741e-10	3.1206e-07	-3.1208e-07	6.5385e-09	-5.2333e-09	-1.2945e-09	3.1214e-07	-3.121e-07	1.02628e-08	-7.8838e-09	-2.3489e-09	3.1234e-07	-3.1232e-07
-0.12	5.96e-11	-1.054e-10	4.356e-11	3.1222e-07	-3.1232e-07	3.5586e-10	-3.4268e-10	-1.336e-11	3.1232e-07	-3.1228e-07	1.0221e-09	-8.7926e-10	-1.4545e-10	3.1224e-07	-3.1196e-07	2.1418e-09	-1.7878e-09	-3.5176e-10	3.1226e-07	-3.1228e-07	3.8773e-09	-3.1629e-09	-7.1233e-10	3.1204e-07	-3.121e-07	6.5477e-09	-5.1501e-09	-1.3326e-09	3.1228e-07	-3.1228e-07	1.01924e-08	-7.77e-09	-2.4038e-09	3.1244e-07	-3.1242e-07
-0.115	5.583e-11	-9.813e-11	4.179e-11	3.1244e-07	-3.1216e-07	3.5359e-10	-3.2837e-10	-2.347e-11	3.1234e-07	-3.1226e-07	1.0055e-09	-8.51e-10	-1.619e-10	3.122e-07	-3.1218e-07	2.1188e-09	-1.7436e-09	-3.7614e-10	3.1232e-07	-3.1212e-07	3.8525e-09	-3.1075e-09	-7.4231e-10	3.121e-07	-3.1208e-07	6.4305e-09	-5.0476e-09	-1.3748e-09	3.1238e-07	-3.1214e-07	1.01402e-08	-7.6773e-09	-2.4609e-09	3.1224e-07	-3.1214e-07
-0.11	5.651e-11	-9.094e-11	3.745e-11	3.1216e-07	-3.1212e-07	3.4625e-10	-3.1317e-10	-3.511e-11	3.1208e-07	-3.1206e-07	1.0045e-09	-8.2358e-10	-1.7914e-10	3.1204e-07	-3.1194e-07	2.1066e-09	-1.7003e-09	-4.0214e-10	3.1204e-07	-3.1202e-07	3.8231e-09	-3.0442e-09	-7.7726e-10	3.1232e-07	-3.1214e-07	6.4003e-09	-4.9708e-09	-1.4181e-09	3.1236e-07	-3.1236e-07	1.01022e-08	-7.5663e-09	-2.5132e-09	3.122e-07	-3.124e-07
-0.105	4.831e-11	-8.396e-11	3.452e-11	3.1224e-07	-3.1236e-07	3.4744e-10	-2.983e-10	-4.577e-11	3.1218e-07	-3.1226e-07	1.0012e-09	-7.9657e-10	-1.9825e-10	3.1226e-07	-3.1218e-07	2.0943e-09	-1.6609e-09	-4.3259e-10	3.1212e-07	-3.1216e-07	3.8087e-09	-2.9781e-09	-8.1498e-10	3.1226e-07	-3.1226e-07	6.3446e-09	-4.8865e-09	-1.4795e-09	3.1224e-07	-3.123e-07	1.00592e-08	-7.4596e-09	-2.588e-09	3.1232e-07	-3.1212e-07
-0.1	4.763e-11	-7.836e-11	3.248e-11	3.124e-07	-3.1242e-07	3.5066e-10	-2.8498e-10	-6.173e-11	3.1212e-07	-3.121e-07	1.0043e-09	-7.7103e-10	-2.2407e-10	3.1228e-07	-3.1212e-07	2.0872e-09	-1.621e-09	-4.6769e-10	3.1216e-07	-3.1194e-07	3.7989e-09	-2.9246e-09	-8.6194e-10	3.121e-07	-3.1214e-07	6.3272e-09	-4.8007e-09	-1.5452e-09	3.1234e-07	-3.1206e-07	1.00386e-08	-7.3515e-09	-2.6706e-09	3.1222e-07	-3.1226e-07
-0.095	4.532e-11	-7.114e-11	3.068e-11	3.1218e-07	-3.1216e-07	3.5096e-10	-2.7189e-10	-7.689e-11	3.1228e-07	-3.1226e-07	1.0023e-09	-7.4695e-10	-2.518e-10	3.122e-07	-3.1196e-07	2.0897e-09	-1.5814e-09	-5.079e-10	3.1216e-07	-3.1196e-07	3.7948e-09	-2.8695e-09	-9.1403e-10	3.1202e-07	-3.1224e-07	6.3365e-09	-4.7225e-09	-1.6065e-09	3.1228e-07	-3.1208e-07	1.00396e-08	-7.234e-09	-2.7733e-09	3.124e-07	-3.1238e-07
-0.09	4.343e-11	-6.661e-11	2.633e-11	3.1232e-07	-3.1218e-07	3.5727e-10	-2.589e-10	-9.419e-11	3.1218e-07	-3.1218e-07	1.0117e-09	-7.2233e-10	-2.8534e-10	3.1198e-07	-3.1194e-07	2.0925e-09	-1.5423e-09	-5.5418e-10	3.1198e-07	-3.12e-07	3.7942e-09	-2.81e-09	-9.7883e-10	3.1222e-07	-3.1206e-07	6.3341e-09	-4.6344e-09	-1.6984e-09	3.1216e-07	-3.1206e-07	1.00156e-08	-7.1382e-09	-2.8869e-09	3.1216e-07	-3.1214e-07
-0.085	3.781e-11	-6.116e-11	2.332e-11	3.1224e-07	-3.1236e-07	3.6435e-10	-2.4632e-10	-1.1301e-10	3.1204e-07	-3.1228e-07	1.0273e-09	-6.987e-10	-3.2041e-10	3.1222e-07	-3.1204e-07	2.106e-09	-1.5036e-09	-6.0141e-10	3.1222e-07	-3.122e-07	3.8093e-09	-2.7554e-09	-1.04325e-09	3.1202e-07	-3.1224e-07	6.348e-09	-4.5524e-09	-1.7822e-09	3.1236e-07	-3.1228e-07	1.00564e-08	-7.0151e-09	-3.0102e-09	3.1228e-07	-3.1214e-07
-0.08	3.722e-11	-5.537e-11	2.165e-11	3.1216e-07	-3.1212e-07	3.7765e-10	-2.3389e-10	-1.3636e-10	3.121e-07	-3.1208e-07	1.0386e-09	-6.7635e-10	-3.6033e-10	3.1204e-07	-3.1202e-07	2.1265e-09	-1.4656e-09	-6.6155e-10	3.1218e-07	-3.12e-07	3.8296e-09	-2.6976e-09	-1.1359e-09	3.1206e-07	-3.1208e-07	6.3742e-09	-4.4739e-09	-1.8862e-09	3.1224e-07	-3.1232e-07	1.00876e-08	-6.9346e-09	-3.1682e-09	3.1228e-07	-3.1214e-07
-0.075	3.717e-11	-5.074e-11	1.756e-11	3.1248e-07	-3.1226e-07	3.8688e-10	-2.2227e-10	-1.6283e-10	3.1202e-07	-3.1216e-07	1.0581e-09	-6.5182e-10	-4.0565e-10	3.1224e-07	-3.1202e-07	2.1599e-09	-1.4296e-09	-7.263e-10	3.1202e-07	-3.1202e-07	3.87e-09	-2.6462e-09	-1.2204e-09	3.1206e-07	-3.1212e-07	6.4143e-09	-4.4028e-09	-2.0162e-09	3.121e-07	-3.123e-07	1.01494e-08	-6.8296e-09	-3.3079e-09	3.1238e-07	-3.1216e-07
-0.07	3.035e-11	-4.609e-11	1.603e-11	3.1232e-07	-3.1236e-07	4.0804e-10	-2.0916e-10	-1.9108e-10	3.1224e-07	-3.1222e-07	1.0916e-09	-6.3039e-10	-4.602e-10	3.12e-07	-3.1194e-07	2.2061e-09	-1.3919e-09	-8.0443e-10	3.12e-07	-3.122e-07	3.9241e-09	-2.5877e-09	-1.326e-09	3.121e-07	-3.1218e-07	6.5012e-09	-4.334e-09	-2.1577e-09	3.1228e-07	-3.1228e-07	1.0225e-08	-6.7133e-09	-3.49e-09	3.1234e-07	-3.122e-07
-0.065	3.102e-11	-4.049e-11	1.527e-11	3.1222e-07	-3.1214e-07	4.3515e-10	-1.9819e-10	-2.2676e-10	3.121e-07	-3.1232e-07	1.1334e-09	-6.0891e-10	-5.2447e-10	3.1226e-07	-3.1226e-07	2.2588e-09	-1.3571e-09	-9.0009e-10	3.12e-07	-3.1198e-07	3.9911e-09	-2.539e-09	-1.4585e-09	3.1222e-07	-3.1226e-07	6.6026e-09	-4.2607e-09	-2.3319e-09	3.121e-07	-3.1208e-07	1.03474e-08	-6.6333e-09	-3.7081e-09	3.124e-07	-3.1216e-07
