Vg	Id,Vd=0V	Ig,Vd=0V	Is,Vd=0V	Iavdd,Vd=0V	Ignd,Vd=0V	Id,Vd=0.15V	Ig,Vd=0.15V	Is,Vd=0.15V	Iavdd,Vd=0.15V	Ignd,Vd=0.15V	Id,Vd=0.3V	Ig,Vd=0.3V	Is,Vd=0.3V	Iavdd,Vd=0.3V	Ignd,Vd=0.3V	Id,Vd=0.45V	Ig,Vd=0.45V	Is,Vd=0.45V	Iavdd,Vd=0.45V	Ignd,Vd=0.45V	Id,Vd=0.6V	Ig,Vd=0.6V	Is,Vd=0.6V	Iavdd,Vd=0.6V	Ignd,Vd=0.6V	Id,Vd=0.75V	Ig,Vd=0.75V	Is,Vd=0.75V	Iavdd,Vd=0.75V	Ignd,Vd=0.75V	Id,Vd=0.9V	Ig,Vd=0.9V	Is,Vd=0.9V	Iavdd,Vd=0.9V	Ignd,Vd=0.9V
-0.3	2.0071e-10	-4.531e-10	2.3626e-10	4.908e-07	-4.9058e-07	7.3254e-10	-9.0341e-10	1.6376e-10	4.9038e-07	-4.953e-07	1.7202e-09	-1.7525e-09	3.479e-11	4.78e-07	-4.905e-07	3.4038e-09	-3.1727e-09	-2.2432e-10	4.9286e-07	-4.924e-07	6.0953e-09	-5.3573e-09	-7.2447e-10	4.9172e-07	-4.5108e-07	1.03346e-08	-8.4846e-09	-1.8022e-09	4.981e-07	-4.8608e-07	1.72544e-08	-1.27588e-08	-4.4506e-09	4.9476e-07	-4.9544e-07
-0.295	1.9473e-10	-4.3166e-10	2.2532e-10	4.9212e-07	-4.922e-07	7.0989e-10	-8.6847e-10	1.5059e-10	4.9566e-07	-4.9552e-07	1.6746e-09	-1.7004e-09	1.569e-11	4.9548e-07	-4.9518e-07	3.3379e-09	-3.0939e-09	-2.4549e-10	4.9108e-07	-4.9094e-07	5.9943e-09	-5.2483e-09	-7.5073e-10	4.9152e-07	-4.6406e-07	1.01528e-08	-8.3275e-09	-1.8194e-09	4.9282e-07	-4.9266e-07	1.70162e-08	-1.25566e-08	-4.4379e-09	4.9834e-07	-4.9848e-07
-0.29	1.8418e-10	-4.1334e-10	2.1373e-10	4.907e-07	-4.9052e-07	6.9168e-10	-8.3606e-10	1.3603e-10	4.9032e-07	-4.9082e-07	1.6412e-09	-1.6516e-09	-1.22e-12	4.9572e-07	-4.9202e-07	3.2831e-09	-3.0184e-09	-2.6751e-10	4.8694e-07	-4.5554e-07	5.9203e-09	-5.1416e-09	-7.8683e-10	4.9674e-07	-4.9656e-07	1.0052e-08	-8.1817e-09	-1.8582e-09	4.9416e-07	-4.9396e-07	1.68132e-08	-1.23662e-08	-4.4403e-09	4.8846e-07	-4.9444e-07
-0.285	1.786e-10	-3.9215e-10	2.0621e-10	4.9054e-07	-4.8336e-07	6.729e-10	-8.0541e-10	1.2093e-10	4.9222e-07	-4.9192e-07	1.6157e-09	-1.6013e-09	-1.851e-11	4.9564e-07	-4.952e-07	3.2334e-09	-2.9468e-09	-2.9548e-10	4.907e-07	-4.9084e-07	5.8489e-09	-5.0375e-09	-8.1721e-10	4.9692e-07	-4.797e-07	9.9428e-09	-8.0396e-09	-1.8878e-09	4.9238e-07	-4.9246e-07	1.66346e-08	-1.217e-08	-4.4297e-09	4.522e-07	-4.9068e-07
-0.28	1.7051e-10	-3.7387e-10	1.9792e-10	4.959e-07	-4.5588e-07	6.612e-10	-7.7435e-10	1.0801e-10	4.9052e-07	-4.9038e-07	1.5892e-09	-1.5552e-09	-4.128e-11	4.7694e-07	-4.9572e-07	3.1862e-09	-2.8757e-09	-3.1335e-10	4.9628e-07	-4.9644e-07	5.7822e-09	-4.9338e-09	-8.469e-10	4.9666e-07	-4.9106e-07	9.8344e-09	-7.9002e-09	-1.9266e-09	4.9576e-07	-4.5144e-07	1.64542e-08	-1.19834e-08	-4.4427e-09	4.6308e-07	-4.9802e-07
-0.275	1.5813e-10	-3.5586e-10	1.9141e-10	4.5168e-07	-4.6522e-07	6.4815e-10	-7.4407e-10	9.123e-11	4.903e-07	-4.9032e-07	1.5602e-09	-1.5094e-09	-6.258e-11	4.9054e-07	-4.9056e-07	3.1485e-09	-2.8053e-09	-3.4186e-10	4.9084e-07	-4.9094e-07	5.7202e-09	-4.8331e-09	-8.828e-10	4.9148e-07	-4.7488e-07	9.7424e-09	-7.7647e-09	-1.9676e-09	4.9174e-07	-4.9236e-07	1.62842e-08	-1.18014e-08	-4.4769e-09	4.98e-07	-4.9308e-07
-0.27	1.5513e-10	-3.4068e-10	1.8047e-10	4.5014e-07	-4.9214e-07	6.3576e-10	-7.15e-10	7.436e-11	4.9192e-07	-4.9174e-07	1.5392e-09	-1.4648e-09	-8.467e-11	4.747e-07	-4.9564e-07	3.1055e-09	-2.7389e-09	-3.7155e-10	4.908e-07	-4.909e-07	5.6606e-09	-4.7359e-09	-9.2368e-10	4.913e-07	-4.9104e-07	9.6486e-09	-7.628e-09	-2.0196e-09	4.9174e-07	-4.589e-07	1.61398e-08	-1.1612e-08	-4.513e-09	4.6166e-07	-4.9282e-07
-0.265	1.4778e-10	-3.2431e-10	1.7283e-10	4.918e-07	-4.92e-07	6.2695e-10	-6.8823e-10	5.705e-11	4.9646e-07	-4.8956e-07	1.5232e-09	-1.4189e-09	-1.0719e-10	4.9018e-07	-4.9016e-07	3.0732e-09	-2.6701e-09	-4.0347e-10	4.9088e-07	-4.5506e-07	5.6069e-09	-4.6411e-09	-9.6834e-10	4.8946e-07	-4.9306e-07	9.5554e-09	-7.4968e-09	-2.0702e-09	4.9368e-07	-4.632e-07	1.59986e-08	-1.14308e-08	-4.5465e-09	4.9258e-07	-4.9252e-07
-0.26	1.4078e-10	-3.089e-10	1.6276e-10	4.903e-07	-4.92e-07	6.2272e-10	-6.6181e-10	4.016e-11	4.9572e-07	-4.9618e-07	1.5098e-09	-1.3762e-09	-1.326e-10	4.951e-07	-4.8972e-07	3.0442e-09	-2.6078e-09	-4.411e-10	4.96e-07	-4.9028e-07	5.5667e-09	-4.545e-09	-1.01654e-09	4.9662e-07	-4.9616e-07	9.4968e-09	-7.3607e-09	-2.1352e-09	4.9738e-07	-4.6942e-07	1.58976e-08	-1.12544e-08	-4.6111e-09	4.5226e-07	-4.8994e-07
-0.255	1.3258e-10	-2.9451e-10	1.5488e-10	4.9202e-07	-4.9192e-07	6.1235e-10	-6.3565e-10	1.898e-11	4.8982e-07	-4.8986e-07	1.4921e-09	-1.3347e-09	-1.6365e-10	4.9552e-07	-4.5216e-07	3.0249e-09	-2.5416e-09	-4.8015e-10	4.8506e-07	-4.8274e-07	5.527e-09	-4.4506e-09	-1.07256e-09	4.929e-07	-4.9278e-07	9.4379e-09	-7.2349e-09	-2.2068e-09	4.9148e-07	-4.8044e-07	1.58058e-08	-1.10822e-08	-4.6874e-09	4.941e-07	-4.9408e-07
-0.25	1.2778e-10	-2.7924e-10	1.4848e-10	4.8324e-07	-4.9522e-07	6.0901e-10	-6.1211e-10	-3.15e-12	4.958e-07	-4.9628e-07	1.4839e-09	-1.294e-09	-1.9501e-10	4.919e-07	-4.9164e-07	2.9963e-09	-2.4803e-09	-5.2173e-10	4.961e-07	-4.9074e-07	5.4964e-09	-4.3606e-09	-1.13614e-09	4.802e-07	-4.9118e-07	9.399e-09	-7.1063e-09	-2.2922e-09	4.9368e-07	-4.9362e-07	1.5719e-08	-1.09056e-08	-4.7827e-09	4.9422e-07	-4.9418e-07
-0.245	1.2325e-10	-2.6629e-10	1.3786e-10	4.903e-07	-4.7774e-07	6.0697e-10	-5.8618e-10	-2.299e-11	4.8958e-07	-4.5716e-07	1.4798e-09	-1.2539e-09	-2.2729e-10	4.723e-07	-4.9198e-07	2.9876e-09	-2.418e-09	-5.722e-10	4.9536e-07	-4.665e-07	5.4757e-09	-4.2726e-09	-1.2006e-09	4.9286e-07	-4.9264e-07	9.3761e-09	-6.9811e-09	-2.3884e-09	4.9336e-07	-4.9296e-07	1.56648e-08	-1.07418e-08	-4.8971e-09	4.941e-07	-4.9428e-07
-0.24	1.1371e-10	-2.5309e-10	1.2988e-10	4.8988e-07	-4.898e-07	6.124e-10	-5.6282e-10	-5.068e-11	4.8942e-07	-4.7048e-07	1.4812e-09	-1.2135e-09	-2.6427e-10	4.9578e-07	-4.6054e-07	2.9875e-09	-2.3589e-09	-6.242e-10	4.5436e-07	-4.9578e-07	5.4643e-09	-4.1832e-09	-1.2819e-09	4.5204e-07	-4.8912e-07	9.3663e-09	-6.8574e-09	-2.5043e-09	4.9688e-07	-4.9658e-07	1.56348e-08	-1.05708e-08	-5.0451e-09	4.9392e-07	-4.943e-07
-0.235	1.0974e-10	-2.4108e-10	1.2635e-10	4.9656e-07	-4.964e-07	6.1434e-10	-5.3926e-10	-7.69e-11	4.897e-07	-4.8924e-07	1.4846e-09	-1.177e-09	-3.0487e-10	4.9552e-07	-4.9118e-07	2.9878e-09	-2.3003e-09	-6.8145e-10	4.9242e-07	-4.814e-07	5.4727e-09	-4.0946e-09	-1.3673e-09	4.9232e-07	-4.9266e-07	9.3711e-09	-6.7395e-09	-2.6311e-09	4.9304e-07	-4.9314e-07	1.5634e-08	-1.04074e-08	-5.2052e-09	4.9784e-07	-4.9246e-07
-0.23	1.0512e-10	-2.2764e-10	1.2074e-10	4.8996e-07	-4.7672e-07	6.2604e-10	-5.1798e-10	-1.0823e-10	4.8938e-07	-4.8968e-07	1.4945e-09	-1.1416e-09	-3.5352e-10	4.9008e-07	-4.9388e-07	2.9977e-09	-2.242e-09	-7.575e-10	4.6038e-07	-4.9206e-07	5.4973e-09	-4.0109e-09	-1.4753e-09	4.9086e-07	-4.907e-07	9.401e-09	-6.619e-09	-2.7766e-09	4.9332e-07	-4.5084e-07	1.56658e-08	-1.02404e-08	-5.3944e-09	4.9736e-07	-4.9758e-07
-0.225	1.0193e-10	-2.1704e-10	1.1247e-10	4.9166e-07	-4.9198e-07	6.3958e-10	-4.9657e-10	-1.4129e-10	4.9142e-07	-4.9142e-07	1.5151e-09	-1.105e-09	-4.0611e-10	4.9558e-07	-4.958e-07	3.0208e-09	-2.1868e-09	-8.3098e-10	4.9062e-07	-4.4998e-07	5.5239e-09	-3.9271e-09	-1.5954e-09	4.9102e-07	-4.908e-07	9.4526e-09	-6.5039e-09	-2.9394e-09	4.9142e-07	-4.914e-07	1.5734e-08	-1.00854e-08	-5.6189e-09	4.9216e-07	-4.9216e-07
-0.22	9.438e-11	-2.0672e-10	1.0286e-10	4.9014e-07	-4.9024e-07	6.5733e-10	-4.7561e-10	-1.8167e-10	4.9144e-07	-4.9118e-07	1.5402e-09	-1.0694e-09	-4.6765e-10	4.881e-07	-4.922e-07	3.0589e-09	-2.1309e-09	-9.2082e-10	4.9054e-07	-4.9046e-07	5.583e-09	-3.8466e-09	-1.7372e-09	4.9618e-07	-4.9618e-07	9.5442e-09	-6.3831e-09	-3.1408e-09	4.9298e-07	-4.6e-07	1.5849e-08	-9.9214e-09	-5.8902e-09	4.9758e-07	-4.7164e-07
-0.215	9.254e-11	-1.9499e-10	9.928e-11	4.9042e-07	-4.9076e-07	6.8101e-10	-4.5704e-10	-2.2489e-10	4.915e-07	-4.9136e-07	1.5746e-09	-1.0356e-09	-5.3572e-10	4.8848e-07	-4.9188e-07	3.1078e-09	-2.0772e-09	-1.0261e-09	4.957e-07	-4.7182e-07	5.6517e-09	-3.7629e-09	-1.8791e-09	4.5038e-07	-4.5016e-07	9.6258e-09	-6.269e-09	-3.3668e-09	4.9288e-07	-4.9294e-07	1.60102e-08	-9.7726e-09	-6.1923e-09	4.9226e-07	-4.923e-07
-0.21	8.99e-11	-1.839e-10	9.192e-11	4.902e-07	-4.871e-07	7.129e-10	-4.3692e-10	-2.7362e-10	4.8938e-07	-4.8966e-07	1.6189e-09	-1.0032e-09	-6.1354e-10	4.9024e-07	-4.7976e-07	3.1672e-09	-2.0268e-09	-1.14361e-09	4.9216e-07	-4.9036e-07	5.7464e-09	-3.6814e-09	-2.0508e-09	4.9072e-07	-4.7296e-07	9.7872e-09	-6.1592e-09	-3.6398e-09	4.9156e-07	-4.9152e-07	1.62094e-08	-9.6106e-09	-6.5688e-09	4.9592e-07	-4.9718e-07
-0.205	8.324e-11	-1.7468e-10	8.503e-11	4.9216e-07	-4.9214e-07	7.5164e-10	-4.1965e-10	-3.308e-10	4.8952e-07	-4.896e-07	1.6782e-09	-9.7072e-10	-7.0376e-10	4.919e-07	-4.839e-07	3.2508e-09	-1.9735e-09	-1.2748e-09	4.9586e-07	-4.9558e-07	5.8702e-09	-3.6063e-09	-2.2673e-09	4.9092e-07	-4.9046e-07	9.9827e-09	-6.0468e-09	-3.9288e-09	4.909e-07	-4.9064e-07	1.64798e-08	-9.469e-09	-6.9975e-09	4.938e-07	-4.9374e-07
-0.2	8.394e-11	-1.6553e-10	7.804e-11	4.924e-07	-4.5014e-07	7.934e-10	-4.012e-10	-3.9678e-10	4.9172e-07	-4.8772e-07	1.7504e-09	-9.3916e-10	-8.0695e-10	4.921e-07	-4.9192e-07	3.3507e-09	-1.9229e-09	-1.4329e-09	4.9222e-07	-4.9182e-07	6.0223e-09	-3.5293e-09	-2.4958e-09	4.9094e-07	-4.9088e-07	1.02152e-08	-5.9368e-09	-4.2726e-09	4.9716e-07	-4.9726e-07	1.68054e-08	-9.322e-09	-7.461e-09	4.9398e-07	-4.9272e-07
-0.195	8.085e-11	-1.5485e-10	7.352e-11	4.9488e-07	-4.9034e-07	8.5304e-10	-3.8342e-10	-4.7078e-10	4.9142e-07	-4.9144e-07	1.838e-09	-9.0984e-10	-9.2333e-10	4.7352e-07	-4.9566e-07	3.4772e-09	-1.8729e-09	-1.6148e-09	4.5336e-07	-4.9556e-07	6.2256e-09	-3.4527e-09	-2.7676e-09	4.9562e-07	-4.9114e-07	1.04835e-08	-5.8319e-09	-4.655e-09	4.9014e-07	-4.922e-07	1.72106e-08	-9.1773e-09	-8.0121e-09	4.918e-07	-4.9204e-07
-0.19	7.618e-11	-1.4583e-10	6.536e-11	4.9224e-07	-4.9146e-07	9.2223e-10	-3.6636e-10	-5.5259e-10	4.5e-07	-4.915e-07	1.9506e-09	-8.8057e-10	-1.06685e-09	4.5394e-07	-4.9186e-07	3.643e-09	-1.8234e-09	-1.8187e-09	4.906e-07	-4.9054e-07	6.4543e-09	-3.3778e-09	-3.0824e-09	4.8472e-07	-4.7094e-07	1.08593e-08	-5.7282e-09	-5.1257e-09	4.924e-07	-4.9216e-07	1.77046e-08	-9.0276e-09	-8.661e-09	4.8952e-07	-4.9182e-07
-0.185	7.435e-11	-1.3729e-10	6.39e-11	4.9194e-07	-4.9206e-07	1.00384e-09	-3.5081e-10	-6.5268e-10	4.8178e-07	-4.9292e-07	2.08e-09	-8.5222e-10	-1.2262e-09	4.9056e-07	-4.902e-07	3.8323e-09	-1.7779e-09	-2.0468e-09	4.9206e-07	-4.92e-07	6.7361e-09	-3.3074e-09	-3.4294e-09	4.7692e-07	-4.9034e-07	1.12834e-08	-5.6222e-09	-5.6439e-09	4.7314e-07	-4.9704e-07	1.8315e-08	-8.8905e-09	-9.4216e-09	4.968e-07	-4.9702e-07
-0.18	7.474e-11	-1.3005e-10	5.623e-11	4.6638e-07	-4.8988e-07	1.09604e-09	-3.3477e-10	-7.6647e-10	4.9172e-07	-4.8128e-07	2.224e-09	-8.2339e-10	-1.4066e-09	4.4962e-07	-4.9044e-07	4.0598e-09	-1.7318e-09	-2.3229e-09	4.9608e-07	-4.958e-07	7.1055e-09	-3.235e-09	-3.8548e-09	4.9232e-07	-4.9154e-07	1.17692e-08	-5.5161e-09	-6.2701e-09	4.8498e-07	-4.901e-07	1.90254e-08	-8.745e-09	-1.02594e-08	4.7942e-07	-4.9206e-07
-0.175	7.468e-11	-1.2205e-10	4.684e-11	4.907e-07	-4.9552e-07	1.2155e-09	-3.1932e-10	-8.9502e-10	4.8938e-07	-4.8926e-07	2.4053e-09	-7.9603e-10	-1.6114e-09	4.9034e-07	-4.9544e-07	4.32e-09	-1.6853e-09	-2.6103e-09	4.9074e-07	-4.904e-07	7.5015e-09	-3.1648e-09	-4.3145e-09	4.9198e-07	-4.924e-07	1.23678e-08	-5.417e-09	-6.945e-09	4.91e-07	-4.9122e-07	1.98682e-08	-8.6108e-09	-1.12858e-08	4.9352e-07	-4.935e-07
-0.17	7.308e-11	-1.1514e-10	4.053e-11	4.9018e-07	-4.9558e-07	1.3487e-09	-3.0529e-10	-1.04508e-09	4.9196e-07	-4.921e-07	2.6292e-09	-7.6961e-10	-1.8649e-09	4.5366e-07	-4.9492e-07	4.6238e-09	-1.6411e-09	-2.9853e-09	4.9144e-07	-4.9572e-07	7.9753e-09	-3.0945e-09	-4.867e-09	4.906e-07	-4.9594e-07	1.30954e-08	-5.3162e-09	-7.7221e-09	4.9282e-07	-4.7754e-07	2.09134e-08	-8.4729e-09	-1.24502e-08	4.9306e-07	-4.9316e-07
-0.165	7.429e-11	-1.0807e-10	3.411e-11	4.9172e-07	-4.9164e-07	1.5122e-09	-2.8944e-10	-1.222e-09	4.901e-07	-4.4934e-07	2.8961e-09	-7.427e-10	-2.1458e-09	4.9174e-07	-4.9046e-07	4.998e-09	-1.5992e-09	-3.4244e-09	4.9584e-07	-4.9508e-07	8.5496e-09	-3.0281e-09	-5.4989e-09	4.6612e-07	-4.6118e-07	1.3878e-08	-5.2153e-09	-8.6664e-09	4.5152e-07	-4.925e-07	2.21098e-08	-8.3325e-09	-1.37918e-08	4.9328e-07	-4.9338e-07
-0.16	7.689e-11	-1.0202e-10	2.633e-11	4.9024e-07	-4.9054e-07	1.6934e-09	-2.7752e-10	-1.4189e-09	4.9534e-07	-4.952e-07	3.1928e-09	-7.1651e-10	-2.4709e-09	4.9062e-07	-4.9064e-07	5.4752e-09	-1.556e-09	-3.902e-09	4.924e-07	-4.5e-07	9.2257e-09	-2.961e-09	-6.2429e-09	4.9076e-07	-4.9028e-07	1.49144e-08	-5.1184e-09	-9.7305e-09	4.91e-07	-4.9056e-07	2.34994e-08	-8.1964e-09	-1.53042e-08	4.9686e-07	-4.917e-07
-0.155	7.999e-11	-9.567e-11	1.53e-11	4.9564e-07	-4.4982e-07	1.9103e-09	-2.6421e-10	-1.6448e-09	4.956e-07	-4.9358e-07	3.5381e-09	-6.9327e-10	-2.8523e-09	4.9008e-07	-4.9042e-07	5.9912e-09	-1.5137e-09	-4.4676e-09	4.943e-07	-4.9206e-07	9.9912e-09	-2.8937e-09	-7.079e-09	4.8168e-07	-4.9056e-07	1.60332e-08	-5.0262e-09	-1.09932e-08	4.9244e-07	-4.9274e-07	2.51176e-08	-8.0639e-09	-1.70506e-08	4.9164e-07	-4.9134e-07
-0.15	8.14e-11	-9.011e-11	6.02e-12	4.9548e-07	-4.9534e-07	2.166e-09	-2.5325e-10	-1.9157e-09	4.9536e-07	-4.9158e-07	3.9621e-09	-6.6993e-10	-3.3023e-09	4.9544e-07	-4.5216e-07	6.6004e-09	-1.4729e-09	-5.1151e-09	4.8972e-07	-4.8962e-07	1.09009e-08	-2.8306e-09	-8.0565e-09	4.6944e-07	-4.9604e-07	1.74016e-08	-4.9292e-09	-1.24486e-08	4.9286e-07	-4.9278e-07	2.70552e-08	-7.9389e-09	-1.90804e-08	4.9696e-07	-4.8438e-07
-0.145	8.492e-11	-8.379e-11	-3.75e-12	4.8996e-07	-4.9018e-07	2.4631e-09	-2.3968e-10	-2.2136e-09	4.9026e-07	-4.9002e-07	4.4659e-09	-6.4565e-10	-3.8183e-09	4.92e-07	-4.9008e-07	7.3182e-09	-1.4337e-09	-5.8837e-09	4.9628e-07	-4.963e-07	1.20002e-08	-2.7697e-09	-9.2165e-09	4.957e-07	-4.9592e-07	1.89202e-08	-4.8392e-09	-1.40582e-08	4.909e-07	-4.9094e-07	2.91482e-08	-7.8086e-09	-2.13468e-08	4.917e-07	-4.9128e-07
-0.14	1.003e-10	-7.781e-11	-8.83e-12	4.9562e-07	-4.9556e-07	2.8186e-09	-2.2844e-10	-2.5846e-09	4.9176e-07	-4.9168e-07	5.0271e-09	-6.236e-10	-4.3929e-09	4.902e-07	-4.9022e-07	8.1527e-09	-1.3938e-09	-6.7673e-09	4.896e-07	-4.8954e-07	1.327e-08	-2.7083e-09	-1.05202e-08	4.905e-07	-4.9064e-07	2.07744e-08	-4.7487e-09	-1.60418e-08	4.908e-07	-4.9094e-07	3.18092e-08	-7.6802e-09	-2.41538e-08	4.7656e-07	-4.9156e-07
-0.135	9.657e-11	-7.285e-11	-2.645e-11	4.9558e-07	-4.9528e-07	3.2172e-09	-2.1767e-10	-2.9912e-09	4.9184e-07	-4.917e-07	5.6569e-09	-6.0059e-10	-5.0804e-09	4.9488e-07	-4.7426e-07	9.1377e-09	-1.3547e-09	-7.772e-09	4.8946e-07	-4.9592e-07	1.46974e-08	-2.6456e-09	-1.21166e-08	4.9568e-07	-4.8374e-07	2.28858e-08	-4.6591e-09	-1.82146e-08	4.9212e-07	-4.9634e-07	3.47258e-08	-7.552e-09	-2.70682e-08	4.9684e-07	-4.9652e-07
-0.13	1.158e-10	-6.933e-11	-4.014e-11	4.5324e-07	-4.7974e-07	3.6892e-09	-2.0645e-10	-3.4829e-09	4.8954e-07	-4.5504e-07	6.4368e-09	-5.7896e-10	-5.8519e-09	4.9564e-07	-4.9556e-07	1.02936e-08	-1.3173e-09	-8.9479e-09	4.913e-07	-4.9152e-07	1.64308e-08	-2.5876e-09	-1.3837e-08	4.9032e-07	-4.9186e-07	2.54232e-08	-4.5709e-09	-2.07832e-08	4.9084e-07	-4.9594e-07	3.82186e-08	-7.4315e-09	-3.08532e-08	4.9332e-07	-4.524e-07
-0.125	1.2526e-10	-6.41e-11	-5.339e-11	4.9004e-07	-4.9046e-07	4.2656e-09	-1.9526e-10	-4.0602e-09	4.9226e-07	-4.9196e-07	7.3702e-09	-5.5737e-10	-6.7924e-09	4.9558e-07	-4.9526e-07	1.16188e-08	-1.2824e-09	-1.0327e-08	4.965e-07	-4.6844e-07	1.84122e-08	-2.5313e-09	-1.5861e-08	4.9216e-07	-4.9228e-07	2.82114e-08	-4.4833e-09	-2.37822e-08	4.9076e-07	-4.9084e-07	4.22916e-08	-7.3096e-09	-3.49804e-08	4.9148e-07	-4.892e-07
-0.12	1.3813e-10	-5.919e-11	-7.969e-11	4.862e-07	-4.9182e-07	4.9202e-09	-1.8425e-10	-4.7325e-09	4.9206e-07	-4.9216e-07	8.4172e-09	-5.355e-10	-7.8861e-09	4.9214e-07	-4.9178e-07	1.32068e-08	-1.2478e-09	-1.19526e-08	4.8716e-07	-4.8934e-07	2.07068e-08	-2.4707e-09	-1.83042e-08	4.5252e-07	-4.9556e-07	3.16248e-08	-4.3983e-09	-2.7204e-08	4.9098e-07	-4.9064e-07	4.7061e-08	-7.1881e-09	-3.98264e-08	4.9684e-07	-4.9674e-07
-0.115	1.412e-10	-5.538e-11	-9.731e-11	4.9532e-07	-4.956e-07	5.6747e-09	-1.7634e-10	-5.4868e-09	4.9232e-07	-4.914e-07	9.6316e-09	-5.1593e-10	-9.1029e-09	4.9036e-07	-4.9038e-07	1.49732e-08	-1.2128e-09	-1.3747e-08	4.964e-07	-4.9628e-07	2.33614e-08	-2.4141e-09	-2.10374e-08	4.9032e-07	-4.9052e-07	3.54028e-08	-4.3119e-09	-3.09988e-08	4.9574e-07	-4.9576e-07	5.24606e-08	-7.0687e-09	-4.53532e-08	4.9184e-07	-4.9162e-07
-0.11	1.6136e-10	-5.077e-11	-1.0916e-10	4.9186e-07	-4.9182e-07	6.5478e-09	-1.6825e-10	-6.3817e-09	4.9572e-07	-4.8998e-07	1.10819e-08	-4.957e-10	-1.05442e-08	4.9032e-07	-4.8998e-07	1.71028e-08	-1.1777e-09	-1.59562e-08	4.5364e-07	-4.9656e-07	2.66256e-08	-2.3592e-09	-2.42128e-08	4.539e-07	-4.9208e-07	3.98592e-08	-4.2301e-09	-3.56666e-08	4.9252e-07	-4.9258e-07	5.87002e-08	-6.9502e-09	-5.1856e-08	4.9108e-07	-4.5082e-07
-0.105	1.9421e-10	-4.703e-11	-1.3461e-10	4.903e-07	-4.9058e-07	7.5958e-09	-1.5822e-10	-7.4313e-09	4.9196e-07	-4.9558e-07	1.27386e-08	-4.8142e-10	-1.22694e-08	4.9014e-07	-4.9082e-07	1.9487e-08	-1.1448e-09	-1.84104e-08	4.9638e-07	-4.5186e-07	3.02432e-08	-2.308e-09	-2.77892e-08	4.904e-07	-4.9526e-07	4.52252e-08	-4.1475e-09	-4.10858e-08	4.962e-07	-4.9606e-07	6.60666e-08	-6.8388e-09	-5.91148e-08	4.9056e-07	-4.9026e-07
-0.1	2.003e-10	-4.428e-11	-1.6796e-10	4.9042e-07	-4.9046e-07	8.8006e-09	-1.4911e-10	-8.645e-09	4.9592e-07	-4.9562e-07	1.46894e-08	-4.6117e-10	-1.42776e-08	4.9036e-07	-4.9046e-07	2.23358e-08	-1.1108e-09	-2.11944e-08	4.8924e-07	-4.893e-07	3.45322e-08	-2.254e-09	-3.22938e-08	4.9566e-07	-4.8704e-07	5.12828e-08	-4.0667e-09	-4.72278e-08	4.9108e-07	-4.9098e-07	7.44386e-08	-6.7217e-09	-6.77896e-08	4.8908e-07	-4.9756e-07
-0.095	2.4181e-10	-4.092e-11	-1.7689e-10	4.904e-07	-4.9028e-07	1.019e-08	-1.4175e-10	-1.00437e-08	4.9032e-07	-4.8996e-07	1.69422e-08	-4.4332e-10	-1.64882e-08	4.9186e-07	-4.9152e-07	2.56418e-08	-1.0792e-09	-2.45066e-08	4.521e-07	-4.9636e-07	3.94728e-08	-2.2011e-09	-3.7159e-08	4.9204e-07	-4.9236e-07	5.82392e-08	-3.9883e-09	-5.41304e-08	4.9278e-07	-4.9254e-07	8.41134e-08	-6.6107e-09	-7.72894e-08	4.973e-07	-4.9728e-07
-0.09	2.7572e-10	-3.714e-11	-2.312e-10	4.9012e-07	-4.9032e-07	1.1859e-08	-1.3464e-10	-1.17464e-08	4.9552e-07	-4.957e-07	1.9614e-08	-4.2675e-10	-1.90538e-08	4.8856e-07	-4.905e-07	2.9451e-08	-1.048e-09	-2.84236e-08	4.9016e-07	-4.7186e-07	4.5223e-08	-2.1474e-09	-4.31216e-08	4.9234e-07	-4.9192e-07	6.61748e-08	-3.908e-09	-6.2517e-08	4.9248e-07	-4.921e-07	9.53762e-08	-6.4975e-09	-8.88622e-08	4.9744e-07	-4.9752e-07
-0.085	3.0236e-10	-3.372e-11	-2.7882e-10	4.905e-07	-4.4966e-07	1.38038e-08	-1.2629e-10	-1.36898e-08	4.9184e-07	-4.9176e-07	2.27182e-08	-4.104e-10	-2.2169e-08	4.9186e-07	-4.9198e-07	3.4013e-08	-1.0186e-09	-3.30422e-08	4.902e-07	-4.9042e-07	5.17292e-08	-2.0978e-09	-4.96946e-08	4.9014e-07	-4.497e-07	7.57466e-08	-3.8326e-09	-7.18474e-08	4.909e-07	-4.9068e-07	1.08634e-07	-6.3912e-09	-1.021104e-07	4.9742e-07	-4.9726e-07
-0.08	3.4749e-10	-3.099e-11	-3.118e-10	4.9196e-07	-4.8874e-07	1.59922e-08	-1.1956e-10	-1.58846e-08	4.8976e-07	-4.9176e-07	2.61264e-08	-3.935e-10	-2.58254e-08	4.6432e-07	-4.902e-07	3.90896e-08	-9.8774e-10	-3.82658e-08	4.9102e-07	-4.8136e-07	5.9249e-08	-2.0502e-09	-5.72422e-08	4.9168e-07	-4.9212e-07	8.70722e-08	-3.7572e-09	-8.30106e-08	4.9094e-07	-4.9088e-07	1.2432e-07	-6.2861e-09	-1.1818e-07	4.6056e-07	-4.8076e-07
-0.075	3.9559e-10	-2.86e-11	-3.6986e-10	4.9164e-07	-4.5008e-07	1.85508e-08	-1.1193e-10	-1.84564e-08	4.9038e-07	-4.9026e-07	3.0295e-08	-3.785e-10	-2.98604e-08	4.903e-07	-4.889e-07	4.51698e-08	-9.5715e-10	-4.4279e-08	4.667e-07	-4.9516e-07	6.83574e-08	-2.0011e-09	-6.6216e-08	4.921e-07	-4.9174e-07	9.9092e-08	-3.6817e-09	-9.59334e-08	4.9082e-07	-4.893e-07	1.411e-07	-6.1759e-09	-1.3458e-07	4.973e-07	-4.9682e-07
-0.07	4.5728e-10	-2.555e-11	-4.6891e-10	4.9046e-07	-4.9062e-07	2.15392e-08	-1.0597e-10	-2.1415e-08	4.9192e-07	-4.9208e-07	3.51142e-08	-3.6294e-10	-3.47086e-08	4.924e-07	-4.9144e-07	5.24742e-08	-9.2717e-10	-5.13032e-08	4.9552e-07	-4.9564e-07	7.85486e-08	-1.9532e-09	-7.68184e-08	4.9032e-07	-4.9014e-07	1.143218e-07	-3.6068e-09	-1.103544e-07	4.8918e-07	-4.901e-07	1.6136e-07	-6.0657e-09	-1.5498e-07	4.9112e-07	-4.9142e-07
