Vg	Id,Vd=0V	Ig,Vd=0V	Is,Vd=0V	Iavdd,Vd=0V	Ignd,Vd=0V	Id,Vd=0.15V	Ig,Vd=0.15V	Is,Vd=0.15V	Iavdd,Vd=0.15V	Ignd,Vd=0.15V	Id,Vd=0.3V	Ig,Vd=0.3V	Is,Vd=0.3V	Iavdd,Vd=0.3V	Ignd,Vd=0.3V	Id,Vd=0.45V	Ig,Vd=0.45V	Is,Vd=0.45V	Iavdd,Vd=0.45V	Ignd,Vd=0.45V	Id,Vd=0.6V	Ig,Vd=0.6V	Is,Vd=0.6V	Iavdd,Vd=0.6V	Ignd,Vd=0.6V	Id,Vd=0.75V	Ig,Vd=0.75V	Is,Vd=0.75V	Iavdd,Vd=0.75V	Ignd,Vd=0.75V	Id,Vd=0.9V	Ig,Vd=0.9V	Is,Vd=0.9V	Iavdd,Vd=0.9V	Ignd,Vd=0.9V
1.2	-8.4766e-08	5.5352e-09	3.4311e-10	3.9112e-07	-3.1222e-07	-4.64832e-08	4.3624e-09	1.4634e-10	3.5576e-07	-3.1384e-07	-2.49302e-08	3.4559e-09	5.96e-11	3.3522e-07	-3.1396e-07	-1.25224e-08	2.7916e-09	-9.48e-12	3.2324e-07	-3.1352e-07	-5.6023e-09	2.3167e-09	-6.73e-11	3.1664e-07	-3.132e-07	-1.7847e-09	2.0077e-09	-1.2125e-10	3.129e-07	-3.1286e-07	4.3537e-10	1.8067e-09	-1.7467e-10	3.1042e-07	-3.1246e-07
1.195	-8.4312e-08	5.3394e-09	3.3691e-10	3.909e-07	-3.1216e-07	-4.61298e-08	4.1564e-09	1.509e-10	3.5554e-07	-3.1372e-07	-2.4747e-08	3.2647e-09	6.473e-11	3.352e-07	-3.1378e-07	-1.24422e-08	2.6089e-09	-4.32e-12	3.2328e-07	-3.1344e-07	-5.5978e-09	2.1392e-09	-6.335e-11	3.1674e-07	-3.132e-07	-1.7906e-09	1.8352e-09	-1.1712e-10	3.1292e-07	-3.128e-07	4.3003e-10	1.6436e-09	-1.6878e-10	3.1062e-07	-3.1252e-07
1.19	-8.36514e-08	5.1454e-09	3.3972e-10	3.9052e-07	-3.123e-07	-4.5993e-08	3.9684e-09	1.5293e-10	3.5556e-07	-3.136e-07	-2.46882e-08	3.089e-09	7.035e-11	3.3524e-07	-3.1368e-07	-1.24122e-08	2.4434e-09	2.6e-13	3.2336e-07	-3.133e-07	-5.5812e-09	1.9839e-09	-5.724e-11	3.1676e-07	-3.1306e-07	-1.7823e-09	1.686e-09	-1.1185e-10	3.1304e-07	-3.1282e-07	4.287e-10	1.4966e-09	-1.6418e-10	3.1074e-07	-3.126e-07
1.185	-8.33476e-08	4.977e-09	3.4261e-10	3.9022e-07	-3.1218e-07	-4.58224e-08	3.8106e-09	1.6331e-10	3.5546e-07	-3.1354e-07	-2.4635e-08	2.9344e-09	7.428e-11	3.3526e-07	-3.1362e-07	-1.23816e-08	2.2988e-09	5.76e-12	3.2346e-07	-3.133e-07	-5.5545e-09	1.8421e-09	-5.285e-11	3.1682e-07	-3.1302e-07	-1.7722e-09	1.5486e-09	-1.0687e-10	3.1314e-07	-3.1274e-07	4.351e-10	1.3613e-09	-1.5801e-10	3.108e-07	-3.1246e-07
1.18	-8.28664e-08	4.8141e-09	3.4203e-10	3.8988e-07	-3.1216e-07	-4.56222e-08	3.6528e-09	1.6571e-10	3.5536e-07	-3.1346e-07	-2.45818e-08	2.7887e-09	7.84e-11	3.353e-07	-3.1346e-07	-1.23306e-08	2.158e-09	1.007e-11	3.2352e-07	-3.132e-07	-5.5461e-09	1.7106e-09	-4.845e-11	3.1698e-07	-3.13e-07	-1.7706e-09	1.4231e-09	-1.0171e-10	3.1324e-07	-3.127e-07	4.3799e-10	1.2451e-09	-1.5363e-10	3.1094e-07	-3.1244e-07
1.175	-8.2176e-08	4.6638e-09	3.4427e-10	3.8966e-07	-3.121e-07	-4.5544e-08	3.5126e-09	1.7106e-10	3.5526e-07	-3.1342e-07	-2.45238e-08	2.6554e-09	8.305e-11	3.3526e-07	-3.1344e-07	-1.23162e-08	2.0341e-09	1.497e-11	3.235e-07	-3.1316e-07	-5.5361e-09	1.5974e-09	-4.345e-11	3.17e-07	-3.1294e-07	-1.7584e-09	1.3132e-09	-9.826e-11	3.1332e-07	-3.1276e-07	4.4243e-10	1.1359e-09	-1.4971e-10	3.1102e-07	-3.1248e-07
1.17	-8.19518e-08	4.5217e-09	3.4676e-10	3.8892e-07	-3.1206e-07	-4.54194e-08	3.3787e-09	1.7579e-10	3.5518e-07	-3.1332e-07	-2.4458e-08	2.5324e-09	8.767e-11	3.3518e-07	-3.133e-07	-1.22886e-08	1.9182e-09	1.875e-11	3.2354e-07	-3.1318e-07	-5.5257e-09	1.486e-09	-3.91e-11	3.1698e-07	-3.1288e-07	-1.7527e-09	1.2085e-09	-9.369e-11	3.134e-07	-3.1276e-07	4.4316e-10	1.0355e-09	-1.4458e-10	3.1108e-07	-3.1242e-07
1.165	-8.152e-08	4.3886e-09	3.4819e-10	3.8896e-07	-3.1218e-07	-4.52684e-08	3.2557e-09	1.7912e-10	3.5512e-07	-3.133e-07	-2.44308e-08	2.4206e-09	9.218e-11	3.352e-07	-3.1324e-07	-1.22628e-08	1.8149e-09	2.395e-11	3.2356e-07	-3.131e-07	-5.5071e-09	1.389e-09	-3.489e-11	3.1704e-07	-3.1306e-07	-1.7558e-09	1.1161e-09	-8.933e-11	3.134e-07	-3.1272e-07	4.4695e-10	9.4807e-10	-1.4039e-10	3.1118e-07	-3.1244e-07
1.16	-8.11768e-08	4.2701e-09	3.501e-10	3.8866e-07	-3.1216e-07	-4.5176e-08	3.1436e-09	1.8467e-10	3.551e-07	-3.132e-07	-2.4256e-08	2.3172e-09	9.668e-11	3.3516e-07	-3.1322e-07	-1.22272e-08	1.7219e-09	2.854e-11	3.2358e-07	-3.1308e-07	-5.4843e-09	1.2986e-09	-2.941e-11	3.1712e-07	-3.1284e-07	-1.7483e-09	1.0321e-09	-8.406e-11	3.1352e-07	-3.127e-07	4.5009e-10	8.6701e-10	-1.3635e-10	3.1128e-07	-3.1248e-07
1.155	-8.07132e-08	4.1566e-09	3.528e-10	3.8842e-07	-3.122e-07	-4.50106e-08	3.0391e-09	1.898e-10	3.5506e-07	-3.1318e-07	-2.4278e-08	2.2227e-09	9.994e-11	3.3522e-07	-3.1312e-07	-1.2208e-08	1.6334e-09	3.047e-11	3.2364e-07	-3.1304e-07	-5.4692e-09	1.2223e-09	-2.583e-11	3.1722e-07	-3.1284e-07	-1.7357e-09	9.533e-10	-7.946e-11	3.1346e-07	-3.1258e-07	4.5546e-10	7.9487e-10	-1.3214e-10	3.1134e-07	-3.124e-07
1.15	-8.03148e-08	4.048e-09	3.5431e-10	3.8822e-07	-3.1208e-07	-4.48442e-08	2.9449e-09	1.9346e-10	3.5488e-07	-3.1312e-07	-2.42324e-08	2.1363e-09	1.0363e-10	3.352e-07	-3.1314e-07	-1.21706e-08	1.5535e-09	3.635e-11	3.2364e-07	-3.1294e-07	-5.4681e-09	1.144e-09	-2.263e-11	3.1718e-07	-3.1282e-07	-1.7224e-09	8.8239e-10	-7.567e-11	3.1364e-07	-3.1264e-07	4.568e-10	7.2462e-10	-1.2828e-10	3.1138e-07	-3.124e-07
1.145	-7.97416e-08	3.9503e-09	3.564e-10	3.876e-07	-3.1212e-07	-4.4639e-08	2.8497e-09	1.9621e-10	3.5482e-07	-3.1304e-07	-2.4211e-08	2.0538e-09	1.0656e-10	3.3522e-07	-3.1308e-07	-1.21824e-08	1.4747e-09	3.877e-11	3.2368e-07	-3.1294e-07	-5.4449e-09	1.0768e-09	-1.858e-11	3.1724e-07	-3.1284e-07	-1.7176e-09	8.1841e-10	-7.216e-11	3.1354e-07	-3.126e-07	4.5886e-10	6.6552e-10	-1.2451e-10	3.114e-07	-3.1242e-07
1.14	-7.96368e-08	3.8521e-09	3.5855e-10	3.876e-07	-3.121e-07	-4.45656e-08	2.7682e-09	1.9899e-10	3.5486e-07	-3.1304e-07	-2.4162e-08	1.9789e-09	1.1077e-10	3.352e-07	-3.1314e-07	-1.21186e-08	1.4051e-09	4.276e-11	3.2368e-07	-3.1296e-07	-5.4296e-09	1.0128e-09	-1.547e-11	3.1738e-07	-3.1276e-07	-1.7126e-09	7.6089e-10	-6.803e-11	3.136e-07	-3.126e-07	4.6531e-10	6.0959e-10	-1.2027e-10	3.1144e-07	-3.124e-07
1.135	-7.91376e-08	3.7645e-09	3.6103e-10	3.8732e-07	-3.121e-07	-4.44612e-08	2.6876e-09	2.031e-10	3.5476e-07	-3.1302e-07	-2.41104e-08	1.9087e-09	1.1472e-10	3.3518e-07	-3.1302e-07	-1.21116e-08	1.3433e-09	4.734e-11	3.2366e-07	-3.129e-07	-5.4174e-09	9.5412e-10	-1.103e-11	3.1722e-07	-3.1268e-07	-1.7032e-09	7.0615e-10	-6.361e-11	3.1364e-07	-3.1258e-07	4.663e-10	5.6021e-10	-1.1607e-10	3.115e-07	-3.124e-07
1.13	-7.89498e-08	3.681e-09	3.6336e-10	3.8712e-07	-3.1216e-07	-4.4175e-08	2.6148e-09	2.0607e-10	3.5464e-07	-3.1294e-07	-2.40704e-08	1.8439e-09	1.1869e-10	3.3514e-07	-3.13e-07	-1.20732e-08	1.2836e-09	5.06e-11	3.2358e-07	-3.1286e-07	-5.4206e-09	8.9969e-10	-6.91e-12	3.1724e-07	-3.127e-07	-1.7085e-09	6.5826e-10	-6.005e-11	3.1366e-07	-3.126e-07	4.6849e-10	5.1292e-10	-1.1223e-10	3.1158e-07	-3.124e-07
1.125	-7.8439e-08	3.5995e-09	3.6535e-10	3.87e-07	-3.1212e-07	-4.43236e-08	2.5441e-09	2.0722e-10	3.5458e-07	-3.1294e-07	-2.40286e-08	1.7795e-09	1.2175e-10	3.3534e-07	-3.132e-07	-1.20512e-08	1.2291e-09	5.456e-11	3.237e-07	-3.1288e-07	-5.431e-09	8.5076e-10	-4.54e-12	3.1734e-07	-3.1276e-07	-1.6904e-09	6.1309e-10	-5.75e-11	3.1368e-07	-3.1248e-07	4.7484e-10	4.73e-10	-1.091e-10	3.1166e-07	-3.124e-07
1.12	-7.81732e-08	3.5194e-09	3.6746e-10	3.8638e-07	-3.1206e-07	-4.42498e-08	2.4789e-09	2.0998e-10	3.5454e-07	-3.129e-07	-2.395e-08	1.7239e-09	1.2522e-10	3.3508e-07	-3.1296e-07	-1.20316e-08	1.1825e-09	5.745e-11	3.2366e-07	-3.1278e-07	-5.3915e-09	8.0774e-10	-1.25e-12	3.1732e-07	-3.127e-07	-1.685e-09	5.7324e-10	-5.29e-11	3.137e-07	-3.1252e-07	4.7651e-10	4.3409e-10	-1.0522e-10	3.1162e-07	-3.1238e-07
1.115	-7.80806e-08	3.4478e-09	3.695e-10	3.8632e-07	-3.1208e-07	-4.38518e-08	2.4178e-09	2.1315e-10	3.5442e-07	-3.129e-07	-2.3921e-08	1.6692e-09	1.2823e-10	3.3514e-07	-3.1294e-07	-1.20026e-08	1.1339e-09	6.118e-11	3.236e-07	-3.1278e-07	-5.3819e-09	7.665e-10	2.82e-12	3.1732e-07	-3.1264e-07	-1.6738e-09	5.3513e-10	-4.978e-11	3.137e-07	-3.1252e-07	4.7715e-10	3.9995e-10	-1.021e-10	3.1164e-07	-3.124e-07
1.11	-7.7839e-08	3.381e-09	3.7233e-10	3.8626e-07	-3.1212e-07	-4.40302e-08	2.3557e-09	2.1651e-10	3.5398e-07	-3.1284e-07	-2.38756e-08	1.6182e-09	1.3104e-10	3.3504e-07	-3.1294e-07	-1.20126e-08	1.0897e-09	6.309e-11	3.2366e-07	-3.1274e-07	-5.3671e-09	7.2562e-10	6.68e-12	3.1728e-07	-3.127e-07	-1.6912e-09	5.0118e-10	-4.645e-11	3.1372e-07	-3.1242e-07	4.8316e-10	3.6756e-10	-9.931e-11	3.1168e-07	-3.1236e-07
1.105	-7.75616e-08	3.3128e-09	3.7327e-10	3.8572e-07	-3.1204e-07	-4.39814e-08	2.3023e-09	2.1978e-10	3.5428e-07	-3.128e-07	-2.38304e-08	1.5728e-09	1.354e-10	3.3506e-07	-3.128e-07	-1.1964e-08	1.0476e-09	6.61e-11	3.2358e-07	-3.127e-07	-5.3554e-09	6.9237e-10	9.47e-12	3.1726e-07	-3.127e-07	-1.6651e-09	4.6967e-10	-4.458e-11	3.1378e-07	-3.1254e-07	4.8486e-10	3.3963e-10	-9.588e-11	3.1168e-07	-3.1234e-07
1.1	-7.7244e-08	3.2475e-09	3.7547e-10	3.8596e-07	-3.1208e-07	-4.39262e-08	2.2468e-09	2.2323e-10	3.5422e-07	-3.1288e-07	-2.37792e-08	1.5269e-09	1.3793e-10	3.3502e-07	-3.1276e-07	-1.1961e-08	1.0081e-09	6.999e-11	3.2364e-07	-3.127e-07	-5.3398e-09	6.5511e-10	1.273e-11	3.1734e-07	-3.126e-07	-1.6572e-09	4.411e-10	-4.059e-11	3.1388e-07	-3.1252e-07	4.8217e-10	3.1163e-10	-9.259e-11	3.1168e-07	-3.126e-07
1.095	-7.70176e-08	3.1857e-09	3.7631e-10	3.8576e-07	-3.1206e-07	-4.38388e-08	2.1966e-09	2.2594e-10	3.5418e-07	-3.1272e-07	-2.3736e-08	1.4848e-09	1.4122e-10	3.3494e-07	-3.128e-07	-1.19376e-08	9.7199e-10	7.394e-11	3.2362e-07	-3.1272e-07	-5.3294e-09	6.2814e-10	1.595e-11	3.1736e-07	-3.1264e-07	-1.6537e-09	4.132e-10	-3.729e-11	3.1382e-07	-3.1246e-07	4.8751e-10	2.889e-10	-8.948e-11	3.117e-07	-3.1234e-07
1.09	-7.6748e-08	3.1294e-09	3.7814e-10	3.8546e-07	-3.1208e-07	-4.35406e-08	2.1483e-09	2.292e-10	3.5372e-07	-3.127e-07	-2.36936e-08	1.4427e-09	1.4408e-10	3.3492e-07	-3.1272e-07	-1.19234e-08	9.3679e-10	7.583e-11	3.2364e-07	-3.1266e-07	-5.3223e-09	5.9736e-10	1.859e-11	3.1738e-07	-3.1266e-07	-1.645e-09	3.8772e-10	-3.365e-11	3.1382e-07	-3.1246e-07	4.9168e-10	2.705e-10	-8.682e-11	3.1174e-07	-3.1232e-07
1.085	-7.65928e-08	3.0709e-09	3.803e-10	3.853e-07	-3.1208e-07	-4.36672e-08	2.1022e-09	2.3274e-10	3.5414e-07	-3.127e-07	-2.3663e-08	1.4062e-09	1.4804e-10	3.3488e-07	-3.1276e-07	-1.18856e-08	9.0507e-10	7.932e-11	3.2356e-07	-3.1266e-07	-5.3096e-09	5.739e-10	2.301e-11	3.1738e-07	-3.1268e-07	-1.6443e-09	3.6715e-10	-3.102e-11	3.1382e-07	-3.125e-07	4.9219e-10	2.4753e-10	-8.496e-11	3.1176e-07	-3.1244e-07
1.08	-7.62622e-08	3.0169e-09	3.8238e-10	3.851e-07	-3.1206e-07	-4.35624e-08	2.0585e-09	2.3654e-10	3.5402e-07	-3.127e-07	-2.35702e-08	1.3691e-09	1.5095e-10	3.3484e-07	-3.1274e-07	-1.18884e-08	8.7473e-10	8.131e-11	3.2366e-07	-3.1264e-07	-5.299e-09	5.4668e-10	2.592e-11	3.1736e-07	-3.127e-07	-1.6368e-09	3.4632e-10	-2.797e-11	3.1388e-07	-3.125e-07	4.9259e-10	2.284e-10	-8.143e-11	3.1176e-07	-3.1242e-07
1.075	-7.62876e-08	2.9618e-09	3.8439e-10	3.8506e-07	-3.1204e-07	-4.3475e-08	2.015e-09	2.3794e-10	3.5398e-07	-3.1258e-07	-2.36212e-08	1.3361e-09	1.5383e-10	3.349e-07	-3.1274e-07	-1.18688e-08	8.4685e-10	8.51e-11	3.2354e-07	-3.1264e-07	-5.2954e-09	5.2221e-10	2.963e-11	3.1734e-07	-3.126e-07	-1.6342e-09	3.2695e-10	-2.492e-11	3.139e-07	-3.125e-07	4.9728e-10	2.1307e-10	-7.956e-11	3.118e-07	-3.1236e-07
1.07	-7.5989e-08	2.9112e-09	3.8594e-10	3.8456e-07	-3.1206e-07	-4.33736e-08	1.975e-09	2.4079e-10	3.539e-07	-3.1266e-07	-2.3591e-08	1.3024e-09	1.5659e-10	3.3482e-07	-3.1266e-07	-1.18462e-08	8.2049e-10	8.82e-11	3.2356e-07	-3.1258e-07	-5.2922e-09	5.0292e-10	3.191e-11	3.1744e-07	-3.1256e-07	-1.6352e-09	3.0807e-10	-2.188e-11	3.1388e-07	-3.1246e-07	5.0061e-10	1.9611e-10	-7.606e-11	3.118e-07	-3.1236e-07
1.065	-7.5764e-08	2.8582e-09	3.8925e-10	3.847e-07	-3.1204e-07	-4.33308e-08	1.9372e-09	2.4356e-10	3.5376e-07	-3.1264e-07	-2.35308e-08	1.273e-09	1.5965e-10	3.3482e-07	-3.127e-07	-1.18122e-08	7.956e-10	9.19e-11	3.2358e-07	-3.1258e-07	-5.2725e-09	4.8261e-10	3.412e-11	3.1734e-07	-3.1254e-07	-1.6313e-09	2.9202e-10	-1.851e-11	3.1392e-07	-3.1248e-07	4.9733e-10	1.8413e-10	-7.351e-11	3.1174e-07	-3.1242e-07
1.06	-7.56516e-08	2.8099e-09	3.9253e-10	3.844e-07	-3.121e-07	-4.32608e-08	1.8998e-09	2.4639e-10	3.5374e-07	-3.1266e-07	-2.35056e-08	1.2431e-09	1.6349e-10	3.3484e-07	-3.1266e-07	-1.1817e-08	7.7199e-10	9.595e-11	3.2356e-07	-3.126e-07	-5.2673e-09	4.6565e-10	3.824e-11	3.1732e-07	-3.1254e-07	-1.6251e-09	2.7529e-10	-1.498e-11	3.139e-07	-3.125e-07	5.0228e-10	1.7003e-10	-7.283e-11	3.1176e-07	-3.1236e-07
1.055	-7.52886e-08	2.7645e-09	3.9547e-10	3.8452e-07	-3.1212e-07	-4.3184e-08	1.862e-09	2.5024e-10	3.537e-07	-3.1266e-07	-2.34282e-08	1.211e-09	1.6627e-10	3.3484e-07	-3.1268e-07	-1.17972e-08	7.4926e-10	9.882e-11	3.2356e-07	-3.1262e-07	-5.2608e-09	4.4469e-10	4.128e-11	3.1732e-07	-3.1258e-07	-1.6191e-09	2.6107e-10	-1.165e-11	3.1392e-07	-3.1248e-07	5.0275e-10	1.5922e-10	-6.951e-11	3.1186e-07	-3.124e-07
1.05	-7.53448e-08	2.7183e-09	3.9749e-10	3.8436e-07	-3.121e-07	-4.31262e-08	1.8239e-09	2.5279e-10	3.5374e-07	-3.1254e-07	-2.342e-08	1.1845e-09	1.7059e-10	3.3484e-07	-3.126e-07	-1.17792e-08	7.2815e-10	1.0178e-10	3.2354e-07	-3.126e-07	-5.2458e-09	4.3082e-10	4.47e-11	3.1734e-07	-3.1252e-07	-1.6161e-09	2.4837e-10	-8.75e-12	3.1388e-07	-3.1254e-07	5.0286e-10	1.4646e-10	-6.678e-11	3.1182e-07	-3.1234e-07
1.045	-7.5014e-08	2.6767e-09	3.9998e-10	3.843e-07	-3.1212e-07	-4.3024e-08	1.7897e-09	2.5757e-10	3.5368e-07	-3.1252e-07	-2.34146e-08	1.1564e-09	1.743e-10	3.3482e-07	-3.1266e-07	-1.17464e-08	7.0437e-10	1.0632e-10	3.2354e-07	-3.1256e-07	-5.2389e-09	4.1272e-10	4.754e-11	3.1732e-07	-3.1252e-07	-1.6239e-09	2.3682e-10	-4.19e-12	3.1384e-07	-3.1246e-07	5.0606e-10	1.3705e-10	-6.456e-11	3.1182e-07	-3.124e-07
1.04	-7.49576e-08	2.6298e-09	4.0376e-10	3.841e-07	-3.1224e-07	-4.30206e-08	1.7571e-09	2.6218e-10	3.5356e-07	-3.1258e-07	-2.34026e-08	1.1332e-09	1.7823e-10	3.3476e-07	-3.1266e-07	-1.17514e-08	6.872e-10	1.1022e-10	3.2356e-07	-3.1256e-07	-5.2291e-09	3.9824e-10	5.272e-11	3.1742e-07	-3.1254e-07	-1.6236e-09	2.2187e-10	-6.8e-13	3.1386e-07	-3.1246e-07	5.0625e-10	1.2962e-10	-6.355e-11	3.1182e-07	-3.1234e-07
1.035	-7.48574e-08	2.5903e-09	4.0604e-10	3.8398e-07	-3.1204e-07	-4.2932e-08	1.7268e-09	2.6706e-10	3.5352e-07	-3.1254e-07	-2.32302e-08	1.1044e-09	1.8163e-10	3.3472e-07	-3.1264e-07	-1.17272e-08	6.6506e-10	1.1442e-10	3.2354e-07	-3.1256e-07	-5.2248e-09	3.8421e-10	5.643e-11	3.1738e-07	-3.1252e-07	-1.6105e-09	2.1033e-10	4.07e-12	3.1388e-07	-3.1246e-07	5.0943e-10	1.1912e-10	-6.126e-11	3.1182e-07	-3.124e-07
1.03	-7.44324e-08	2.5478e-09	4.1112e-10	3.8382e-07	-3.1212e-07	-4.27932e-08	1.6934e-09	2.7195e-10	3.5344e-07	-3.127e-07	-2.33328e-08	1.0845e-09	1.8743e-10	3.3482e-07	-3.1268e-07	-1.17148e-08	6.492e-10	1.1908e-10	3.2354e-07	-3.1264e-07	-5.218e-09	3.7157e-10	6.079e-11	3.1734e-07	-3.1244e-07	-1.6051e-09	2.0113e-10	7.46e-12	3.1386e-07	-3.1252e-07	5.0654e-10	1.1301e-10	-5.929e-11	3.1182e-07	-3.1234e-07
1.025	-7.44476e-08	2.5123e-09	4.1564e-10	3.8384e-07	-3.1216e-07	-4.278e-08	1.6648e-09	2.7763e-10	3.5336e-07	-3.1248e-07	-2.32936e-08	1.0584e-09	1.9164e-10	3.3472e-07	-3.1262e-07	-1.169e-08	6.3152e-10	1.2433e-10	3.2356e-07	-3.1246e-07	-5.2169e-09	3.5772e-10	6.508e-11	3.1736e-07	-3.1254e-07	-1.6052e-09	1.9313e-10	1.361e-11	3.1396e-07	-3.1246e-07	5.117e-10	1.028e-10	-5.899e-11	3.1186e-07	-3.1238e-07
1.02	-7.43542e-08	2.4691e-09	4.2109e-10	3.8358e-07	-3.121e-07	-4.27564e-08	1.6332e-09	2.8368e-10	3.5332e-07	-3.1246e-07	-2.32662e-08	1.0356e-09	1.9853e-10	3.347e-07	-3.1266e-07	-1.16862e-08	6.1559e-10	1.3078e-10	3.2348e-07	-3.1256e-07	-5.2094e-09	3.434e-10	7.21e-11	3.1736e-07	-3.1254e-07	-1.6107e-09	1.8246e-10	1.917e-11	3.1382e-07	-3.1238e-07	5.1092e-10	1.0015e-10	-5.554e-11	3.1182e-07	-3.124e-07
1.015	-7.42558e-08	2.4305e-09	4.2743e-10	3.835e-07	-3.121e-07	-4.27456e-08	1.605e-09	2.8997e-10	3.5298e-07	-3.1254e-07	-2.32618e-08	1.0139e-09	2.0416e-10	3.3468e-07	-3.1256e-07	-1.1673e-08	5.9977e-10	1.3644e-10	3.2352e-07	-3.1258e-07	-5.2152e-09	3.3404e-10	7.855e-11	3.1726e-07	-3.1248e-07	-1.6041e-09	1.7293e-10	2.508e-11	3.1384e-07	-3.1256e-07	5.1134e-10	9.391e-11	-5.47e-11	3.1178e-07	-3.1236e-07
1.01	-7.4078e-08	2.3927e-09	4.3442e-10	3.8342e-07	-3.121e-07	-4.27086e-08	1.5757e-09	2.9666e-10	3.5342e-07	-3.1246e-07	-2.3167e-08	9.9131e-10	2.1247e-10	3.3464e-07	-3.1258e-07	-1.1674e-08	5.8152e-10	1.4339e-10	3.2352e-07	-3.1254e-07	-5.1951e-09	3.2249e-10	8.541e-11	3.1732e-07	-3.125e-07	-1.6092e-09	1.6708e-10	3.193e-11	3.138e-07	-3.124e-07	5.147e-10	8.898e-11	-5.414e-11	3.1182e-07	-3.1236e-07
1.005	-7.3756e-08	2.3561e-09	4.4332e-10	3.8316e-07	-3.1208e-07	-4.26446e-08	1.5479e-09	3.0319e-10	3.5328e-07	-3.1246e-07	-2.32292e-08	9.6955e-10	2.2076e-10	3.3466e-07	-3.1258e-07	-1.165e-08	5.6841e-10	1.5303e-10	3.2346e-07	-3.125e-07	-5.2008e-09	3.1246e-10	9.417e-11	3.174e-07	-3.125e-07	-1.6058e-09	1.5621e-10	3.941e-11	3.139e-07	-3.124e-07	5.0982e-10	8.207e-11	-5.125e-11	3.1182e-07	-3.123e-07
1	-7.36286e-08	2.3195e-09	4.5194e-10	3.8302e-07	-3.1212e-07	-4.25634e-08	1.5227e-09	3.1371e-10	3.5328e-07	-3.1252e-07	-2.3169e-08	9.5124e-10	2.2947e-10	3.3464e-07	-3.1258e-07	-1.1652e-08	5.5097e-10	1.613e-10	3.2344e-07	-3.1252e-07	-5.2008e-09	3.0045e-10	1.0394e-10	3.1728e-07	-3.1246e-07	-1.6117e-09	1.5135e-10	4.938e-11	3.1382e-07	-3.1242e-07	5.1353e-10	7.529e-11	-4.925e-11	3.1188e-07	-3.1234e-07
0.995	-7.37548e-08	2.2833e-09	4.6139e-10	3.831e-07	-3.1204e-07	-4.26268e-08	1.4959e-09	3.2444e-10	3.5332e-07	-3.1248e-07	-2.31736e-08	9.3148e-10	2.4021e-10	3.3462e-07	-3.1262e-07	-1.16352e-08	5.3892e-10	1.7098e-10	3.2346e-07	-3.1254e-07	-5.1955e-09	2.9204e-10	1.1361e-10	3.1734e-07	-3.1252e-07	-1.6148e-09	1.4357e-10	5.898e-11	3.138e-07	-3.124e-07	5.1677e-10	7.383e-11	-4.656e-11	3.119e-07	-3.123e-07
0.99	-7.36204e-08	2.2496e-09	4.7323e-10	3.8304e-07	-3.1212e-07	-4.2496e-08	1.4718e-09	3.3877e-10	3.5312e-07	-3.1242e-07	-2.31316e-08	9.1077e-10	2.5273e-10	3.346e-07	-3.1256e-07	-1.16428e-08	5.2443e-10	1.8386e-10	3.2348e-07	-3.1252e-07	-5.2072e-09	2.8287e-10	1.2581e-10	3.1736e-07	-3.1248e-07	-1.6266e-09	1.3869e-10	7.109e-11	3.1382e-07	-3.1242e-07	5.1683e-10	6.954e-11	-4.431e-11	3.1184e-07	-3.1238e-07
0.985	-7.33216e-08	2.214e-09	4.8876e-10	3.8294e-07	-3.1208e-07	-4.2458e-08	1.4433e-09	3.5312e-10	3.5316e-07	-3.1244e-07	-2.31746e-08	8.9362e-10	2.6738e-10	3.3452e-07	-3.1256e-07	-1.16356e-08	5.1505e-10	1.9733e-10	3.2348e-07	-3.1252e-07	-5.21e-09	2.7333e-10	1.3937e-10	3.1728e-07	-3.1242e-07	-1.6339e-09	1.3003e-10	8.451e-11	3.1388e-07	-3.1234e-07	5.1846e-10	6.432e-11	-4.381e-11	3.1186e-07	-3.1234e-07
0.98	-7.32768e-08	2.1797e-09	5.063e-10	3.828e-07	-3.1208e-07	-4.23208e-08	1.4198e-09	3.7099e-10	3.531e-07	-3.1236e-07	-2.31222e-08	8.7313e-10	2.836e-10	3.3454e-07	-3.1248e-07	-1.16616e-08	4.9796e-10	2.1468e-10	3.234e-07	-3.1246e-07	-5.2154e-09	2.6374e-10	1.5631e-10	3.1726e-07	-3.1244e-07	-1.6444e-09	1.2471e-10	1.009e-10	3.1408e-07	-3.1262e-07	5.1622e-10	5.554e-11	-4.361e-11	3.1186e-07	-3.1236e-07
0.975	-7.32976e-08	2.1483e-09	5.2632e-10	3.8284e-07	-3.121e-07	-4.2409e-08	1.3944e-09	3.9157e-10	3.5304e-07	-3.124e-07	-2.31552e-08	8.5276e-10	3.0435e-10	3.3446e-07	-3.1248e-07	-1.16526e-08	4.8421e-10	2.34e-10	3.2348e-07	-3.1246e-07	-5.2245e-09	2.5646e-10	1.7468e-10	3.1726e-07	-3.1246e-07	-1.6578e-09	1.2058e-10	1.1832e-10	3.1384e-07	-3.1246e-07	5.154e-10	5.527e-11	-3.879e-11	3.1188e-07	-3.123e-07
0.97	-7.31896e-08	2.1133e-09	5.4982e-10	3.8266e-07	-3.1212e-07	-4.23928e-08	1.3726e-09	4.1329e-10	3.5268e-07	-3.124e-07	-2.31384e-08	8.3546e-10	3.2688e-10	3.3452e-07	-3.1246e-07	-1.16504e-08	4.7131e-10	2.5652e-10	3.234e-07	-3.1252e-07	-5.2393e-09	2.4699e-10	1.9652e-10	3.1732e-07	-3.1252e-07	-1.674e-09	1.1491e-10	1.4032e-10	3.1386e-07	-3.1242e-07	5.2717e-10	5.572e-11	-3.747e-11	3.1182e-07	-3.1242e-07
0.965	-7.3123e-08	2.0802e-09	5.7559e-10	3.826e-07	-3.121e-07	-4.2266e-08	1.3485e-09	4.404e-10	3.5306e-07	-3.1238e-07	-2.31346e-08	8.2047e-10	3.5395e-10	3.3448e-07	-3.1246e-07	-1.16534e-08	4.5848e-10	2.8297e-10	3.2348e-07	-3.1246e-07	-5.2839e-09	2.3875e-10	2.2112e-10	3.1728e-07	-3.1242e-07	-1.6952e-09	1.0952e-10	1.6435e-10	3.1386e-07	-3.124e-07	5.1838e-10	4.935e-11	-3.675e-11	3.1186e-07	-3.1236e-07
