Vg	Id,Vd=0V	Ig,Vd=0V	Is,Vd=0V	Iavdd,Vd=0V	Ignd,Vd=0V	Id,Vd=0.15V	Ig,Vd=0.15V	Is,Vd=0.15V	Iavdd,Vd=0.15V	Ignd,Vd=0.15V	Id,Vd=0.3V	Ig,Vd=0.3V	Is,Vd=0.3V	Iavdd,Vd=0.3V	Ignd,Vd=0.3V	Id,Vd=0.45V	Ig,Vd=0.45V	Is,Vd=0.45V	Iavdd,Vd=0.45V	Ignd,Vd=0.45V	Id,Vd=0.6V	Ig,Vd=0.6V	Is,Vd=0.6V	Iavdd,Vd=0.6V	Ignd,Vd=0.6V	Id,Vd=0.75V	Ig,Vd=0.75V	Is,Vd=0.75V	Iavdd,Vd=0.75V	Ignd,Vd=0.75V	Id,Vd=0.9V	Ig,Vd=0.9V	Is,Vd=0.9V	Iavdd,Vd=0.9V	Ignd,Vd=0.9V
1.2	-6.88954e-08	8.1036e-09	-2.0818e-10	4.9538e-07	-4.3428e-07	-3.52208e-08	5.6474e-09	-2.2003e-10	4.6556e-07	-4.3592e-07	-1.81834e-08	3.7806e-09	-2.1754e-10	4.5004e-07	-4.3538e-07	-8.8902e-09	2.4763e-09	-2.1086e-10	4.4172e-07	-4.3514e-07	-4.0551e-09	1.5694e-09	-2.1177e-10	4.3774e-07	-4.3508e-07	-1.554e-09	9.7142e-10	-2.1329e-10	4.352e-07	-4.345e-07	-2.3191e-10	6.0804e-10	-2.149e-10	4.3394e-07	-4.3416e-07
1.195	-6.82716e-08	7.998e-09	-2.0346e-10	4.948e-07	-4.3452e-07	-3.47796e-08	5.5418e-09	-2.0373e-10	4.6528e-07	-4.3574e-07	-1.80202e-08	3.7011e-09	-2.0388e-10	4.4982e-07	-4.353e-07	-8.8382e-09	2.4158e-09	-2.0733e-10	4.4168e-07	-4.3496e-07	-4.0312e-09	1.52e-09	-2.0137e-10	4.3756e-07	-4.3492e-07	-1.5366e-09	9.3601e-10	-2.0931e-10	4.3516e-07	-4.3438e-07	-2.3225e-10	5.7869e-10	-2.0711e-10	4.3402e-07	-4.3416e-07
1.19	-6.76186e-08	7.8919e-09	-1.9549e-10	4.944e-07	-4.3454e-07	-3.45634e-08	5.4511e-09	-1.9805e-10	4.6496e-07	-4.3566e-07	-1.7939e-08	3.6324e-09	-1.9846e-10	4.4962e-07	-4.3518e-07	-8.8004e-09	2.3565e-09	-1.978e-10	4.417e-07	-4.3498e-07	-4.0011e-09	1.4761e-09	-1.9767e-10	4.3742e-07	-4.3462e-07	-1.5255e-09	8.9808e-10	-1.9415e-10	4.3518e-07	-4.3438e-07	-2.1655e-10	5.5043e-10	-1.9981e-10	4.34e-07	-4.3408e-07
1.185	-6.69328e-08	7.7679e-09	-1.8494e-10	4.9368e-07	-4.343e-07	-3.43416e-08	5.3585e-09	-1.8943e-10	4.6452e-07	-4.3534e-07	-1.7848e-08	3.5607e-09	-1.936e-10	4.4958e-07	-4.3518e-07	-8.7541e-09	2.3012e-09	-1.8934e-10	4.4162e-07	-4.35e-07	-3.9789e-09	1.4292e-09	-1.8862e-10	4.374e-07	-4.347e-07	-1.4958e-09	8.6484e-10	-1.9413e-10	4.3524e-07	-4.3434e-07	-2.1847e-10	5.2556e-10	-1.934e-10	4.3396e-07	-4.3412e-07
1.18	-6.63134e-08	7.6492e-09	-1.8529e-10	4.9308e-07	-4.3432e-07	-3.41564e-08	5.2718e-09	-1.8661e-10	4.6434e-07	-4.3522e-07	-1.77766e-08	3.4915e-09	-1.8004e-10	4.4978e-07	-4.3524e-07	-8.7026e-09	2.2494e-09	-1.8425e-10	4.4156e-07	-4.3494e-07	-3.9493e-09	1.39e-09	-1.8169e-10	4.3744e-07	-4.347e-07	-1.4987e-09	8.3263e-10	-1.8002e-10	4.3516e-07	-4.344e-07	-2.0178e-10	4.967e-10	-1.8696e-10	4.342e-07	-4.343e-07
1.175	-6.57346e-08	7.5402e-09	-1.7672e-10	4.9258e-07	-4.3424e-07	-3.39462e-08	5.1839e-09	-1.7516e-10	4.6416e-07	-4.3524e-07	-1.76816e-08	3.4259e-09	-1.7674e-10	4.4946e-07	-4.3504e-07	-8.6632e-09	2.1958e-09	-1.781e-10	4.4154e-07	-4.349e-07	-3.9218e-09	1.3491e-09	-1.788e-10	4.3728e-07	-4.3448e-07	-1.4734e-09	7.9955e-10	-1.7469e-10	4.3528e-07	-4.343e-07	-1.9606e-10	4.7117e-10	-1.7779e-10	4.3394e-07	-4.341e-07
1.17	-6.51208e-08	7.4238e-09	-1.6867e-10	4.9212e-07	-4.3422e-07	-3.37224e-08	5.097e-09	-1.6432e-10	4.64e-07	-4.3514e-07	-1.76144e-08	3.3579e-09	-1.6916e-10	4.4936e-07	-4.3498e-07	-8.6151e-09	2.1437e-09	-1.7122e-10	4.4154e-07	-4.3506e-07	-3.8988e-09	1.3102e-09	-1.7305e-10	4.3728e-07	-4.3466e-07	-1.4573e-09	7.7071e-10	-1.6814e-10	4.3512e-07	-4.3424e-07	-1.9001e-10	4.5015e-10	-1.6816e-10	4.3402e-07	-4.3408e-07
1.165	-6.45262e-08	7.3222e-09	-1.6303e-10	4.9186e-07	-4.3448e-07	-3.35064e-08	4.9706e-09	-1.6465e-10	4.6378e-07	-4.3514e-07	-1.75144e-08	3.2905e-09	-1.665e-10	4.4938e-07	-4.35e-07	-8.5851e-09	2.0949e-09	-1.6313e-10	4.4164e-07	-4.3498e-07	-3.8738e-09	1.271e-09	-1.6659e-10	4.3754e-07	-4.3476e-07	-1.4443e-09	7.4027e-10	-1.5832e-10	4.3524e-07	-4.3436e-07	-1.7962e-10	4.2822e-10	-1.6203e-10	4.3404e-07	-4.3412e-07
1.16	-6.40544e-08	7.2132e-09	-1.5716e-10	4.9144e-07	-4.3452e-07	-3.33614e-08	4.8876e-09	-1.55e-10	4.6368e-07	-4.3506e-07	-1.74554e-08	3.2276e-09	-1.507e-10	4.4924e-07	-4.3488e-07	-8.5302e-09	2.0481e-09	-1.5996e-10	4.4142e-07	-4.3476e-07	-3.8482e-09	1.2334e-09	-1.5601e-10	4.3748e-07	-4.3478e-07	-1.4305e-09	7.1585e-10	-1.5563e-10	4.3524e-07	-4.3436e-07	-1.7616e-10	4.0478e-10	-1.5361e-10	4.3408e-07	-4.3406e-07
1.155	-6.34964e-08	7.1112e-09	-1.4768e-10	4.9082e-07	-4.3422e-07	-3.3144e-08	4.8074e-09	-1.489e-10	4.6352e-07	-4.3492e-07	-1.7375e-08	3.1668e-09	-1.5125e-10	4.4926e-07	-4.3484e-07	-8.4989e-09	1.9984e-09	-1.4894e-10	4.4138e-07	-4.3476e-07	-3.8243e-09	1.1992e-09	-1.5397e-10	4.3742e-07	-4.3458e-07	-1.4177e-09	6.865e-10	-1.4475e-10	4.3534e-07	-4.3454e-07	-1.5715e-10	3.8354e-10	-1.5017e-10	4.3402e-07	-4.3408e-07
1.15	-6.30118e-08	7.0056e-09	-1.3861e-10	4.905e-07	-4.3424e-07	-3.29836e-08	4.7329e-09	-1.4146e-10	4.6324e-07	-4.3508e-07	-1.73114e-08	3.1069e-09	-1.4294e-10	4.4906e-07	-4.3468e-07	-8.4461e-09	1.9503e-09	-1.454e-10	4.416e-07	-4.3494e-07	-3.799e-09	1.1647e-09	-1.4539e-10	4.3726e-07	-4.3448e-07	-1.3963e-09	6.6236e-10	-1.48e-10	4.3542e-07	-4.3446e-07	-1.6489e-10	3.6536e-10	-1.4206e-10	4.34e-07	-4.3394e-07
1.145	-6.25346e-08	6.8994e-09	-1.3707e-10	4.9002e-07	-4.3424e-07	-3.28246e-08	4.6496e-09	-1.4285e-10	4.6312e-07	-4.3482e-07	-1.7231e-08	3.0471e-09	-1.3493e-10	4.4912e-07	-4.3476e-07	-8.4216e-09	1.9085e-09	-1.3628e-10	4.4138e-07	-4.347e-07	-3.7801e-09	1.1306e-09	-1.3796e-10	4.3744e-07	-4.3452e-07	-1.3949e-09	6.3651e-10	-1.3662e-10	4.3518e-07	-4.343e-07	-1.4788e-10	3.4594e-10	-1.3653e-10	4.3422e-07	-4.3424e-07
1.14	-6.20102e-08	6.7623e-09	-1.2954e-10	4.8976e-07	-4.3446e-07	-3.2677e-08	4.5698e-09	-1.3013e-10	4.6316e-07	-4.3484e-07	-1.71594e-08	2.99e-09	-1.284e-10	4.4914e-07	-4.3478e-07	-8.3767e-09	1.8648e-09	-1.3082e-10	4.414e-07	-4.3466e-07	-3.7496e-09	1.0971e-09	-1.297e-10	4.3724e-07	-4.3446e-07	-1.3698e-09	6.1031e-10	-1.352e-10	4.3518e-07	-4.343e-07	-1.4609e-10	3.2822e-10	-1.2813e-10	4.3424e-07	-4.3428e-07
1.135	-6.15754e-08	6.6615e-09	-1.215e-10	4.893e-07	-4.3422e-07	-3.2527e-08	4.4965e-09	-1.2391e-10	4.6322e-07	-4.3504e-07	-1.70968e-08	2.9328e-09	-1.2666e-10	4.4906e-07	-4.3476e-07	-8.3377e-09	1.8211e-09	-1.2505e-10	4.4128e-07	-4.3468e-07	-3.7304e-09	1.0673e-09	-1.2354e-10	4.3722e-07	-4.3444e-07	-1.3632e-09	5.8752e-10	-1.2798e-10	4.3512e-07	-4.3424e-07	-1.4007e-10	3.1262e-10	-1.2111e-10	4.341e-07	-4.3412e-07
1.13	-6.11248e-08	6.5582e-09	-1.1689e-10	4.8894e-07	-4.343e-07	-3.23874e-08	4.4239e-09	-1.2008e-10	4.6318e-07	-4.3496e-07	-1.7019e-08	2.8749e-09	-1.2301e-10	4.4906e-07	-4.3478e-07	-8.2981e-09	1.7762e-09	-1.1466e-10	4.4148e-07	-4.3478e-07	-3.7071e-09	1.0352e-09	-1.1654e-10	4.3736e-07	-4.3446e-07	-1.3493e-09	5.6693e-10	-1.2103e-10	4.3542e-07	-4.3448e-07	-1.2892e-10	2.9656e-10	-1.1988e-10	4.3406e-07	-4.3406e-07
1.125	-6.07252e-08	6.5056e-09	-1.1442e-10	4.8866e-07	-4.3434e-07	-3.22434e-08	4.3537e-09	-1.144e-10	4.6276e-07	-4.347e-07	-1.69562e-08	2.8214e-09	-1.097e-10	4.4888e-07	-4.3458e-07	-8.2601e-09	1.7401e-09	-1.1285e-10	4.4142e-07	-4.3472e-07	-3.6843e-09	1.0053e-09	-1.1039e-10	4.372e-07	-4.344e-07	-1.3384e-09	5.4499e-10	-1.1905e-10	4.3546e-07	-4.3446e-07	-1.3133e-10	2.7833e-10	-1.124e-10	4.3404e-07	-4.3406e-07
1.12	-6.03346e-08	6.4171e-09	-1.0748e-10	4.884e-07	-4.3428e-07	-3.21056e-08	4.2871e-09	-1.0764e-10	4.628e-07	-4.3498e-07	-1.68972e-08	2.7698e-09	-1.1142e-10	4.4898e-07	-4.347e-07	-8.2368e-09	1.7012e-09	-1.0258e-10	4.412e-07	-4.346e-07	-3.6652e-09	9.7939e-10	-1.0982e-10	4.3722e-07	-4.3446e-07	-1.3238e-09	5.2221e-10	-1.0946e-10	4.3518e-07	-4.3426e-07	-1.1345e-10	2.6582e-10	-1.1135e-10	4.3428e-07	-4.3424e-07
1.115	-5.99242e-08	6.3224e-09	-1.02e-10	4.8818e-07	-4.3454e-07	-3.19642e-08	4.2127e-09	-1.0308e-10	4.6262e-07	-4.3466e-07	-1.68376e-08	2.7147e-09	-1.0282e-10	4.4888e-07	-4.3458e-07	-8.1868e-09	1.6609e-09	-1.0346e-10	4.4124e-07	-4.3458e-07	-3.6392e-09	9.4945e-10	-1.0515e-10	4.3724e-07	-4.3446e-07	-1.3104e-09	5.0347e-10	-1.062e-10	4.3522e-07	-4.3422e-07	-1.2072e-10	2.5222e-10	-1.0251e-10	4.3408e-07	-4.3414e-07
1.11	-5.94824e-08	6.1887e-09	-1.0012e-10	4.8776e-07	-4.3428e-07	-3.1837e-08	4.1433e-09	-1.0183e-10	4.625e-07	-4.347e-07	-1.67696e-08	2.6654e-09	-9.888e-11	4.4882e-07	-4.3452e-07	-8.1683e-09	1.6237e-09	-9.486e-11	4.4116e-07	-4.3456e-07	-3.6232e-09	9.2114e-10	-9.991e-11	4.3722e-07	-4.3436e-07	-1.3012e-09	4.8334e-10	-9.667e-11	4.352e-07	-4.3428e-07	-1.0361e-10	2.3727e-10	-1.0047e-10	4.341e-07	-4.3412e-07
1.105	-5.91502e-08	6.0926e-09	-9.459e-11	4.874e-07	-4.3428e-07	-3.17044e-08	4.076e-09	-9.174e-11	4.6244e-07	-4.3472e-07	-1.67188e-08	2.6158e-09	-8.975e-11	4.488e-07	-4.346e-07	-8.1238e-09	1.5891e-09	-9.541e-11	4.412e-07	-4.3454e-07	-3.6039e-09	8.958e-10	-9.269e-11	4.373e-07	-4.3444e-07	-1.2832e-09	4.6546e-10	-9.643e-11	4.3522e-07	-4.342e-07	-1.0481e-10	2.2437e-10	-9.398e-11	4.342e-07	-4.3424e-07
1.1	-5.87924e-08	6.0477e-09	-8.512e-11	4.8712e-07	-4.3432e-07	-3.156e-08	4.0108e-09	-8.793e-11	4.623e-07	-4.347e-07	-1.66564e-08	2.5665e-09	-9.118e-11	4.487e-07	-4.3446e-07	-8.0956e-09	1.5508e-09	-9.035e-11	4.4114e-07	-4.3446e-07	-3.5801e-09	8.7031e-10	-8.881e-11	4.3746e-07	-4.3456e-07	-1.2766e-09	4.4634e-10	-8.561e-11	4.3516e-07	-4.3424e-07	-1.0008e-10	2.1331e-10	-8.746e-11	4.3408e-07	-4.3408e-07
1.095	-5.84362e-08	5.958e-09	-8.296e-11	4.8686e-07	-4.343e-07	-3.1453e-08	3.9418e-09	-8.464e-11	4.622e-07	-4.3482e-07	-1.65942e-08	2.5142e-09	-8.403e-11	4.4874e-07	-4.3456e-07	-8.053e-09	1.5105e-09	-8.599e-11	4.4116e-07	-4.3454e-07	-3.5638e-09	8.4437e-10	-8.198e-11	4.3726e-07	-4.3448e-07	-1.2643e-09	4.2913e-10	-8.13e-11	4.3516e-07	-4.343e-07	-9.034e-11	2.0178e-10	-8.877e-11	4.3406e-07	-4.3406e-07
1.09	-5.80826e-08	5.8678e-09	-7.88e-11	4.8654e-07	-4.3418e-07	-3.1346e-08	3.8797e-09	-7.886e-11	4.6218e-07	-4.3466e-07	-1.65316e-08	2.4676e-09	-7.664e-11	4.4868e-07	-4.3458e-07	-8.0298e-09	1.4805e-09	-8.114e-11	4.4112e-07	-4.3442e-07	-3.5416e-09	8.2088e-10	-7.893e-11	4.3718e-07	-4.3446e-07	-1.2543e-09	4.1223e-10	-7.682e-11	4.352e-07	-4.3418e-07	-9.439e-11	1.8891e-10	-7.913e-11	4.341e-07	-4.3404e-07
1.085	-5.78112e-08	5.7872e-09	-7.252e-11	4.864e-07	-4.3428e-07	-3.12316e-08	3.8173e-09	-6.933e-11	4.6214e-07	-4.3458e-07	-1.64714e-08	2.4217e-09	-7.35e-11	4.4862e-07	-4.3454e-07	-7.9966e-09	1.4462e-09	-7.52e-11	4.4112e-07	-4.3454e-07	-3.531e-09	7.9924e-10	-7.12e-11	4.3726e-07	-4.3434e-07	-1.2397e-09	3.9457e-10	-7.198e-11	4.3516e-07	-4.3442e-07	-7.731e-11	1.8072e-10	-8.151e-11	4.3416e-07	-4.3408e-07
1.08	-5.7493e-08	5.6668e-09	-6.655e-11	4.8624e-07	-4.343e-07	-3.10964e-08	3.7556e-09	-6.737e-11	4.619e-07	-4.3448e-07	-1.64332e-08	2.3741e-09	-6.822e-11	4.4894e-07	-4.3484e-07	-7.9602e-09	1.4118e-09	-7.573e-11	4.4134e-07	-4.3484e-07	-3.4995e-09	7.7414e-10	-6.873e-11	4.3706e-07	-4.343e-07	-1.2348e-09	3.7967e-10	-6.747e-11	4.3518e-07	-4.342e-07	-8.614e-11	1.7096e-10	-7.392e-11	4.3422e-07	-4.3424e-07
1.075	-5.72124e-08	5.6227e-09	-6.547e-11	4.86e-07	-4.3428e-07	-3.1e-08	3.6879e-09	-6.725e-11	4.62e-07	-4.3458e-07	-1.63712e-08	2.3297e-09	-6.524e-11	4.4886e-07	-4.3478e-07	-7.9342e-09	1.3758e-09	-6.451e-11	4.4108e-07	-4.3448e-07	-3.4945e-09	7.5041e-10	-6.104e-11	4.3712e-07	-4.344e-07	-1.2251e-09	3.6472e-10	-6.174e-11	4.3522e-07	-4.343e-07	-7.216e-11	1.5833e-10	-7.423e-11	4.3414e-07	-4.3408e-07
1.07	-5.69224e-08	5.5012e-09	-6.188e-11	4.8562e-07	-4.3424e-07	-3.08936e-08	3.6306e-09	-6.002e-11	4.6202e-07	-4.346e-07	-1.63238e-08	2.2849e-09	-5.708e-11	4.4864e-07	-4.3468e-07	-7.8945e-09	1.3464e-09	-6.38e-11	4.4112e-07	-4.3448e-07	-3.4707e-09	7.3001e-10	-5.906e-11	4.3716e-07	-4.3436e-07	-1.2127e-09	3.4982e-10	-6.177e-11	4.3518e-07	-4.3428e-07	-7.355e-11	1.5037e-10	-6.82e-11	4.3404e-07	-4.341e-07
1.065	-5.66482e-08	5.4561e-09	-5.185e-11	4.8544e-07	-4.3434e-07	-3.08002e-08	3.5698e-09	-5.214e-11	4.6172e-07	-4.3452e-07	-1.62714e-08	2.2439e-09	-5.977e-11	4.4874e-07	-4.3474e-07	-7.8782e-09	1.3177e-09	-5.214e-11	4.4106e-07	-4.3448e-07	-3.4569e-09	7.1081e-10	-5.67e-11	4.3714e-07	-4.343e-07	-1.207e-09	3.3433e-10	-5.379e-11	4.3512e-07	-4.3418e-07	-6.761e-11	1.4077e-10	-6.348e-11	4.341e-07	-4.3404e-07
1.06	-5.6358e-08	5.3748e-09	-5.035e-11	4.8518e-07	-4.342e-07	-3.06926e-08	3.5096e-09	-5.189e-11	4.6194e-07	-4.3468e-07	-1.622e-08	2.2007e-09	-4.893e-11	4.4868e-07	-4.3468e-07	-7.8409e-09	1.285e-09	-5.247e-11	4.4116e-07	-4.3446e-07	-3.4377e-09	6.8614e-10	-4.982e-11	4.3712e-07	-4.3436e-07	-1.1998e-09	3.2305e-10	-5.249e-11	4.3534e-07	-4.3442e-07	-6.133e-11	1.35e-10	-6.502e-11	4.3406e-07	-4.3412e-07
1.055	-5.60764e-08	5.2925e-09	-4.5e-11	4.8516e-07	-4.3422e-07	-3.06292e-08	3.4838e-09	-4.864e-11	4.6192e-07	-4.347e-07	-1.61714e-08	2.1564e-09	-4.444e-11	4.486e-07	-4.3452e-07	-7.8211e-09	1.2565e-09	-4.215e-11	4.4108e-07	-4.3446e-07	-3.4181e-09	6.6696e-10	-4.797e-11	4.3718e-07	-4.3436e-07	-1.1859e-09	3.0918e-10	-4.835e-11	4.351e-07	-4.3418e-07	-6.449e-11	1.2453e-10	-5.478e-11	4.3424e-07	-4.3434e-07
1.05	-5.5822e-08	5.2227e-09	-4.156e-11	4.8494e-07	-4.3428e-07	-3.05294e-08	3.4287e-09	-4.308e-11	4.617e-07	-4.3452e-07	-1.61294e-08	2.1149e-09	-4.42e-11	4.4874e-07	-4.347e-07	-7.7838e-09	1.2256e-09	-4.084e-11	4.411e-07	-4.3448e-07	-3.4158e-09	6.4711e-10	-4.007e-11	4.3724e-07	-4.3438e-07	-1.1775e-09	2.9553e-10	-4.529e-11	4.3502e-07	-4.342e-07	-4.939e-11	1.1832e-10	-5.767e-11	4.3422e-07	-4.3434e-07
1.045	-5.56114e-08	5.1436e-09	-3.284e-11	4.8478e-07	-4.3422e-07	-3.04316e-08	3.3706e-09	-3.529e-11	4.6162e-07	-4.3452e-07	-1.6086e-08	2.0717e-09	-3.794e-11	4.4858e-07	-4.3452e-07	-7.7642e-09	1.1987e-09	-3.63e-11	4.4114e-07	-4.3452e-07	-3.3875e-09	6.2971e-10	-4.315e-11	4.3714e-07	-4.3432e-07	-1.1741e-09	2.8197e-10	-3.734e-11	4.3508e-07	-4.3416e-07	-5.812e-11	1.1028e-10	-4.89e-11	4.3404e-07	-4.3412e-07
1.04	-5.532e-08	5.0288e-09	-3.469e-11	4.8468e-07	-4.3424e-07	-3.03092e-08	3.2843e-09	-3.432e-11	4.6144e-07	-4.3452e-07	-1.60388e-08	2.0346e-09	-3.225e-11	4.4848e-07	-4.343e-07	-7.7365e-09	1.1691e-09	-2.766e-11	4.4102e-07	-4.3434e-07	-3.3839e-09	6.0806e-10	-3.474e-11	4.3714e-07	-4.3436e-07	-1.1681e-09	2.7147e-10	-3.338e-11	4.3512e-07	-4.3418e-07	-4.623e-11	1.0269e-10	-4.912e-11	4.3402e-07	-4.3414e-07
1.035	-5.50676e-08	4.95e-09	-2.762e-11	4.8438e-07	-4.3434e-07	-3.02334e-08	3.2281e-09	-2.747e-11	4.6172e-07	-4.3466e-07	-1.59932e-08	1.9939e-09	-2.764e-11	4.4844e-07	-4.3448e-07	-7.71e-09	1.1436e-09	-2.705e-11	4.413e-07	-4.3462e-07	-3.359e-09	5.8977e-10	-3.163e-11	4.3706e-07	-4.343e-07	-1.1569e-09	2.5769e-10	-3.2e-11	4.3522e-07	-4.3418e-07	-5.033e-11	9.789e-11	-4.586e-11	4.3404e-07	-4.3412e-07
1.03	-5.4879e-08	4.8789e-09	-1.996e-11	4.8428e-07	-4.3414e-07	-3.01326e-08	3.1745e-09	-2.086e-11	4.6144e-07	-4.3444e-07	-1.59474e-08	1.9568e-09	-2.608e-11	4.487e-07	-4.3462e-07	-7.6896e-09	1.116e-09	-1.917e-11	4.4102e-07	-4.3442e-07	-3.3538e-09	5.7419e-10	-2.403e-11	4.371e-07	-4.344e-07	-1.1545e-09	2.4497e-10	-2.54e-11	4.3512e-07	-4.3416e-07	-4.414e-11	9.163e-11	-4.376e-11	4.3436e-07	-4.3434e-07
1.025	-5.4659e-08	4.8425e-09	-1.457e-11	4.8414e-07	-4.3426e-07	-3.00482e-08	3.1201e-09	-1.242e-11	4.6146e-07	-4.3452e-07	-1.59124e-08	1.9168e-09	-1.362e-11	4.4844e-07	-4.3444e-07	-7.6576e-09	1.0906e-09	-2.014e-11	4.4106e-07	-4.3442e-07	-3.3364e-09	5.5519e-10	-1.835e-11	4.3712e-07	-4.343e-07	-1.151e-09	2.3493e-10	-1.761e-11	4.3536e-07	-4.3442e-07	-3.786e-11	8.513e-11	-4.495e-11	4.341e-07	-4.3412e-07
1.02	-5.4491e-08	4.7748e-09	-8.75e-12	4.8392e-07	-4.3438e-07	-2.99694e-08	3.0705e-09	-1.099e-11	4.6138e-07	-4.3446e-07	-1.58652e-08	1.8796e-09	-6.56e-12	4.4842e-07	-4.3434e-07	-7.6396e-09	1.0617e-09	-8.71e-12	4.4114e-07	-4.3446e-07	-3.3257e-09	5.3719e-10	-1.421e-11	4.3734e-07	-4.3428e-07	-1.1392e-09	2.2506e-10	-1.308e-11	4.3508e-07	-4.3406e-07	-4.193e-11	7.769e-11	-3.325e-11	4.342e-07	-4.3424e-07
1.015	-5.42902e-08	4.7022e-09	-1.96e-12	4.84e-07	-4.3428e-07	-2.98908e-08	3.0193e-09	-2.55e-12	4.6138e-07	-4.3438e-07	-1.5829e-08	1.8435e-09	-1.55e-12	4.4836e-07	-4.344e-07	-7.6139e-09	1.0373e-09	-6.81e-12	4.4106e-07	-4.3446e-07	-3.3182e-09	5.204e-10	-1.87e-12	4.3732e-07	-4.3454e-07	-1.1436e-09	2.1503e-10	-6.47e-12	4.3534e-07	-4.3438e-07	-2.979e-11	7.49e-11	-3.727e-11	4.3414e-07	-4.3408e-07
1.01	-5.41238e-08	4.6363e-09	1.244e-11	4.8378e-07	-4.3434e-07	-2.98024e-08	2.9677e-09	9.53e-12	4.6114e-07	-4.3432e-07	-1.57906e-08	1.808e-09	5.77e-12	4.4834e-07	-4.3448e-07	-7.6009e-09	1.0138e-09	2.82e-12	4.4098e-07	-4.3446e-07	-3.2996e-09	5.0532e-10	-1.22e-12	4.3742e-07	-4.346e-07	-1.137e-09	2.0387e-10	2.1e-12	4.3528e-07	-4.3434e-07	-3.816e-11	6.941e-11	-3.02e-11	4.34e-07	-4.34e-07
1.005	-5.38256e-08	4.531e-09	1.311e-11	4.8384e-07	-4.3446e-07	-2.97408e-08	2.9163e-09	1.307e-11	4.613e-07	-4.3442e-07	-1.57502e-08	1.7714e-09	1.758e-11	4.4838e-07	-4.344e-07	-7.5795e-09	9.8807e-10	1.637e-11	4.4098e-07	-4.3444e-07	-3.3019e-09	4.8729e-10	1.578e-11	4.3708e-07	-4.3436e-07	-1.1355e-09	1.949e-10	9.02e-12	4.3534e-07	-4.3434e-07	-2.649e-11	6.233e-11	-3.054e-11	4.3408e-07	-4.3408e-07
1	-5.37198e-08	4.4953e-09	2.853e-11	4.8344e-07	-4.3436e-07	-2.9666e-08	2.8669e-09	2.362e-11	4.6126e-07	-4.345e-07	-1.57176e-08	1.7378e-09	2.681e-11	4.4834e-07	-4.3436e-07	-7.5591e-09	9.665e-10	2.273e-11	4.4106e-07	-4.3442e-07	-3.2851e-09	4.7387e-10	2.129e-11	4.3736e-07	-4.346e-07	-1.1283e-09	1.8607e-10	1.76e-11	4.351e-07	-4.3422e-07	-2.856e-11	5.847e-11	-2.687e-11	4.3408e-07	-4.3418e-07
0.995	-5.34944e-08	4.3922e-09	3.692e-11	4.8332e-07	-4.3418e-07	-2.9596e-08	2.8176e-09	3.595e-11	4.61e-07	-4.344e-07	-1.56734e-08	1.7013e-09	3.063e-11	4.4834e-07	-4.3442e-07	-7.5392e-09	9.4214e-10	3.597e-11	4.4094e-07	-4.3438e-07	-3.2885e-09	4.6031e-10	3.7e-11	4.3712e-07	-4.3436e-07	-1.1379e-09	1.7623e-10	2.997e-11	4.352e-07	-4.3436e-07	-2.506e-11	5.485e-11	-2.253e-11	4.341e-07	-4.3412e-07
0.99	-5.33708e-08	4.3216e-09	5.189e-11	4.8336e-07	-4.3432e-07	-2.95166e-08	2.7709e-09	5.379e-11	4.6112e-07	-4.3428e-07	-1.56376e-08	1.6662e-09	4.405e-11	4.4832e-07	-4.3428e-07	-7.5275e-09	9.1801e-10	4.162e-11	4.4098e-07	-4.344e-07	-3.2736e-09	4.4291e-10	4.443e-11	4.3708e-07	-4.3436e-07	-1.1396e-09	1.6862e-10	4.273e-11	4.3518e-07	-4.3418e-07	-2.322e-11	5.274e-11	-2.45e-11	4.341e-07	-4.34e-07
0.985	-5.32454e-08	4.2649e-09	5.849e-11	4.8326e-07	-4.3428e-07	-2.94712e-08	2.7252e-09	5.879e-11	4.6108e-07	-4.3446e-07	-1.5614e-08	1.6347e-09	6.266e-11	4.4832e-07	-4.3442e-07	-7.5231e-09	8.9313e-10	5.927e-11	4.4082e-07	-4.3426e-07	-3.2804e-09	4.2924e-10	5.889e-11	4.371e-07	-4.343e-07	-1.1352e-09	1.5976e-10	5.22e-11	4.3518e-07	-4.3422e-07	-2.2e-11	4.579e-11	-1.511e-11	4.3428e-07	-4.3418e-07
0.98	-5.30718e-08	4.1946e-09	7.822e-11	4.8312e-07	-4.3434e-07	-2.94236e-08	2.6764e-09	7.697e-11	4.6108e-07	-4.3448e-07	-1.55856e-08	1.5974e-09	7.454e-11	4.4834e-07	-4.3434e-07	-7.5094e-09	8.7231e-10	7.181e-11	4.4088e-07	-4.3436e-07	-3.2768e-09	4.161e-10	7.629e-11	4.373e-07	-4.3448e-07	-1.1522e-09	1.5187e-10	6.993e-11	4.3512e-07	-4.3428e-07	-1.215e-11	4.389e-11	-2.095e-11	4.3412e-07	-4.3408e-07
0.975	-5.28978e-08	4.1324e-09	9.792e-11	4.8302e-07	-4.343e-07	-2.93626e-08	2.6311e-09	9.686e-11	4.6108e-07	-4.3442e-07	-1.5563e-08	1.5669e-09	9.223e-11	4.4824e-07	-4.3446e-07	-7.5056e-09	8.5355e-10	8.689e-11	4.4088e-07	-4.3436e-07	-3.2768e-09	4.0531e-10	8.718e-11	4.3714e-07	-4.3436e-07	-1.1538e-09	1.4447e-10	8.766e-11	4.3512e-07	-4.3424e-07	-2.134e-11	4.165e-11	-1.504e-11	4.3404e-07	-4.3406e-07
0.97	-5.27572e-08	4.0709e-09	1.1574e-10	4.8294e-07	-4.343e-07	-2.9307e-08	2.5877e-09	1.1649e-10	4.6104e-07	-4.3436e-07	-1.55348e-08	1.5347e-09	1.1425e-10	4.4838e-07	-4.344e-07	-7.5025e-09	8.2887e-10	1.0963e-10	4.4104e-07	-4.3452e-07	-3.2877e-09	3.8686e-10	1.1163e-10	4.3712e-07	-4.3434e-07	-1.1702e-09	1.3755e-10	1.064e-10	4.3512e-07	-4.3422e-07	-1.291e-11	3.693e-11	-1.56e-11	4.3398e-07	-4.341e-07
0.965	-5.26304e-08	4.008e-09	1.4436e-10	4.828e-07	-4.3434e-07	-2.92624e-08	2.5423e-09	1.3868e-10	4.6102e-07	-4.3446e-07	-1.55176e-08	1.5044e-09	1.4102e-10	4.4824e-07	-4.343e-07	-7.5014e-09	8.0922e-10	1.318e-10	4.4092e-07	-4.3436e-07	-3.2935e-09	3.7544e-10	1.2892e-10	4.3732e-07	-4.344e-07	-1.1759e-09	1.3146e-10	1.2508e-10	4.3512e-07	-4.342e-07	-1.466e-11	3.263e-11	-1.126e-11	4.3396e-07	-4.3398e-07
