Vg	Id,Vd=0V	Ig,Vd=0V	Is,Vd=0V	Iavdd,Vd=0V	Ignd,Vd=0V	Id,Vd=0.15V	Ig,Vd=0.15V	Is,Vd=0.15V	Iavdd,Vd=0.15V	Ignd,Vd=0.15V	Id,Vd=0.3V	Ig,Vd=0.3V	Is,Vd=0.3V	Iavdd,Vd=0.3V	Ignd,Vd=0.3V	Id,Vd=0.45V	Ig,Vd=0.45V	Is,Vd=0.45V	Iavdd,Vd=0.45V	Ignd,Vd=0.45V	Id,Vd=0.6V	Ig,Vd=0.6V	Is,Vd=0.6V	Iavdd,Vd=0.6V	Ignd,Vd=0.6V	Id,Vd=0.75V	Ig,Vd=0.75V	Is,Vd=0.75V	Iavdd,Vd=0.75V	Ignd,Vd=0.75V	Id,Vd=0.9V	Ig,Vd=0.9V	Is,Vd=0.9V	Iavdd,Vd=0.9V	Ignd,Vd=0.9V
-0.3	4.035e-11	-1.0766e-10	4.531e-11	3.1244e-07	-3.124e-07	4.7824e-10	-1.9365e-10	-2.8384e-10	3.1232e-07	-3.1204e-07	1.3088e-09	-3.7267e-10	-9.319e-10	3.1214e-07	-3.1214e-07	3.0603e-09	-6.9755e-10	-2.3519e-09	3.1264e-07	-3.1236e-07	6.8885e-09	-1.2125e-09	-5.6967e-09	3.1318e-07	-3.1298e-07	1.60622e-08	-1.969e-09	-1.39922e-08	3.1386e-07	-3.1384e-07	3.83782e-08	-3.0092e-09	-3.49396e-08	3.1404e-07	-3.1402e-07
-0.295	4.841e-11	-9.584e-11	4.209e-11	3.1262e-07	-3.1248e-07	4.9822e-10	-1.8806e-10	-3.1894e-10	3.1234e-07	-3.1214e-07	1.3742e-09	-3.662e-10	-1.01771e-09	3.1216e-07	-3.1214e-07	3.3183e-09	-6.7854e-10	-2.5843e-09	3.1238e-07	-3.1242e-07	7.3677e-09	-1.1799e-09	-6.2004e-09	3.1292e-07	-3.131e-07	1.69858e-08	-1.9235e-09	-1.50322e-08	3.1358e-07	-3.1372e-07	4.06214e-08	-2.9564e-09	-3.7798e-08	3.141e-07	-3.1386e-07
-0.29	4.409e-11	-9.398e-11	4.05e-11	3.1246e-07	-3.1242e-07	5.405e-10	-1.7467e-10	-3.6658e-10	3.1214e-07	-3.1204e-07	1.472e-09	-3.4583e-10	-1.13232e-09	3.1236e-07	-3.1216e-07	3.4751e-09	-6.5876e-10	-2.8273e-09	3.1248e-07	-3.1244e-07	7.9764e-09	-1.1525e-09	-6.7614e-09	3.1308e-07	-3.1306e-07	1.8475e-08	-1.8883e-09	-1.64442e-08	3.1348e-07	-3.134e-07	4.34698e-08	-2.9e-09	-4.06758e-08	3.1382e-07	-3.1386e-07
-0.285	4.38e-11	-8.057e-11	3.445e-11	3.1264e-07	-3.1266e-07	5.8056e-10	-1.7064e-10	-4.1696e-10	3.1208e-07	-3.1226e-07	1.5972e-09	-3.4098e-10	-1.2512e-09	3.123e-07	-3.1214e-07	3.7333e-09	-6.4775e-10	-3.0954e-09	3.1252e-07	-3.1254e-07	8.5137e-09	-1.1296e-09	-7.3828e-09	3.1298e-07	-3.1272e-07	1.95986e-08	-1.8458e-09	-1.7719e-08	3.136e-07	-3.1352e-07	4.67226e-08	-2.8577e-09	-4.36412e-08	3.1376e-07	-3.1376e-07
-0.28	4.452e-11	-8.314e-11	3.337e-11	3.1256e-07	-3.1264e-07	6.3193e-10	-1.5949e-10	-4.7017e-10	3.1224e-07	-3.1228e-07	1.7225e-09	-3.2911e-10	-1.4054e-09	3.1214e-07	-3.1214e-07	4.0532e-09	-6.2286e-10	-3.4353e-09	3.1256e-07	-3.123e-07	9.2105e-09	-1.098e-09	-8.081e-09	3.1288e-07	-3.128e-07	2.11194e-08	-1.8186e-09	-1.94526e-08	3.1354e-07	-3.1348e-07	5.08816e-08	-2.8121e-09	-4.77466e-08	3.1364e-07	-3.1372e-07
-0.275	3.919e-11	-7.426e-11	3.278e-11	3.126e-07	-3.1238e-07	6.8669e-10	-1.5768e-10	-5.3281e-10	3.1202e-07	-3.122e-07	1.8693e-09	-3.2277e-10	-1.5598e-09	3.121e-07	-3.1224e-07	4.4373e-09	-6.1202e-10	-3.7644e-09	3.1236e-07	-3.1226e-07	9.9628e-09	-1.0763e-09	-8.961e-09	3.1288e-07	-3.1272e-07	2.30596e-08	-1.784e-09	-2.12152e-08	3.132e-07	-3.1318e-07	5.38894e-08	-2.761e-09	-5.1172e-08	3.1358e-07	-3.1352e-07
-0.27	3.994e-11	-7.234e-11	2.976e-11	3.1244e-07	-3.1252e-07	7.5088e-10	-1.4217e-10	-6.0686e-10	3.1212e-07	-3.1208e-07	2.0309e-09	-3.0618e-10	-1.7303e-09	3.1212e-07	-3.1212e-07	4.7511e-09	-5.9183e-10	-4.1567e-09	3.1234e-07	-3.1226e-07	1.08304e-08	-1.0481e-09	-9.7579e-09	3.1262e-07	-3.1268e-07	2.52308e-08	-1.7466e-09	-2.30158e-08	3.133e-07	-3.1334e-07	5.80426e-08	-2.7147e-09	-5.55986e-08	3.1356e-07	-3.1352e-07
-0.265	3.667e-11	-6.758e-11	2.566e-11	3.125e-07	-3.1228e-07	8.252e-10	-1.4245e-10	-6.8041e-10	3.122e-07	-3.1226e-07	2.2276e-09	-2.9348e-10	-1.9309e-09	3.1224e-07	-3.1226e-07	5.1611e-09	-5.7831e-10	-4.59e-09	3.124e-07	-3.1236e-07	1.18076e-08	-1.0265e-09	-1.07347e-08	3.1264e-07	-3.1262e-07	2.68736e-08	-1.7168e-09	-2.526e-08	3.1324e-07	-3.1308e-07	6.26934e-08	-2.6752e-09	-5.97444e-08	3.1354e-07	-3.1364e-07
-0.26	3.764e-11	-6.484e-11	2.692e-11	3.1232e-07	-3.1238e-07	9.0591e-10	-1.37e-10	-7.7002e-10	3.1228e-07	-3.122e-07	2.4265e-09	-2.888e-10	-2.1455e-09	3.1224e-07	-3.1218e-07	5.6695e-09	-5.562e-10	-5.1006e-09	3.124e-07	-3.1232e-07	1.28734e-08	-1.009e-09	-1.18546e-08	3.1282e-07	-3.127e-07	2.94272e-08	-1.6848e-09	-2.75408e-08	3.1326e-07	-3.1314e-07	6.78102e-08	-2.6255e-09	-6.52276e-08	3.1346e-07	-3.134e-07
-0.255	3.352e-11	-6.466e-11	2.6e-11	3.1254e-07	-3.125e-07	1.0017e-09	-1.2759e-10	-8.727e-10	3.1224e-07	-3.1206e-07	2.7355e-09	-2.7726e-10	-2.414e-09	3.1238e-07	-3.123e-07	6.2142e-09	-5.4409e-10	-5.6549e-09	3.1254e-07	-3.123e-07	1.40682e-08	-9.7927e-10	-1.3078e-08	3.1254e-07	-3.125e-07	3.18466e-08	-1.6485e-09	-3.01354e-08	3.1298e-07	-3.1298e-07	7.36162e-08	-2.5872e-09	-7.1023e-08	3.1358e-07	-3.135e-07
-0.25	3.288e-11	-5.446e-11	1.999e-11	3.1232e-07	-3.1224e-07	1.1117e-09	-1.2623e-10	-9.8538e-10	3.1212e-07	-3.1224e-07	2.9567e-09	-2.6987e-10	-2.7193e-09	3.1218e-07	-3.1226e-07	6.8629e-09	-5.2976e-10	-6.3283e-09	3.1248e-07	-3.1234e-07	1.5925e-08	-9.631e-10	-1.47206e-08	3.1274e-07	-3.1262e-07	3.4808e-08	-1.6215e-09	-3.32492e-08	3.1318e-07	-3.129e-07	7.98816e-08	-2.5428e-09	-7.74302e-08	3.1324e-07	-3.1326e-07
-0.245	3.692e-11	-5.855e-11	2.054e-11	3.1258e-07	-3.1236e-07	1.2281e-09	-1.1593e-10	-1.1094e-09	3.1202e-07	-3.1202e-07	3.2458e-09	-2.5554e-10	-2.992e-09	3.1224e-07	-3.1214e-07	7.5166e-09	-5.1455e-10	-7.0345e-09	3.1228e-07	-3.1246e-07	1.68816e-08	-9.3816e-10	-1.59034e-08	3.127e-07	-3.1272e-07	3.80672e-08	-1.5908e-09	-3.67384e-08	3.13e-07	-3.1292e-07	8.64974e-08	-2.5005e-09	-8.48824e-08	3.1322e-07	-3.1326e-07
-0.24	3.05e-11	-5.192e-11	1.906e-11	3.1238e-07	-3.1228e-07	1.3716e-09	-1.1826e-10	-1.2663e-09	3.1222e-07	-3.1214e-07	3.5942e-09	-2.5626e-10	-3.3421e-09	3.1216e-07	-3.121e-07	8.2574e-09	-5.0072e-10	-7.7506e-09	3.1222e-07	-3.1244e-07	1.84082e-08	-9.157e-10	-1.76628e-08	3.1256e-07	-3.1272e-07	4.2073e-08	-1.557e-09	-4.00896e-08	3.1306e-07	-3.1282e-07	9.43022e-08	-2.454e-09	-9.21456e-08	3.1334e-07	-3.1318e-07
-0.235	3.202e-11	-5.011e-11	1.503e-11	3.125e-07	-3.125e-07	1.5416e-09	-1.1073e-10	-1.4265e-09	3.121e-07	-3.1208e-07	4.0098e-09	-2.4239e-10	-3.7803e-09	3.1206e-07	-3.1224e-07	9.1266e-09	-4.8965e-10	-8.6149e-09	3.1228e-07	-3.1224e-07	2.04966e-08	-8.9537e-10	-1.9531e-08	3.1246e-07	-3.1252e-07	4.5865e-08	-1.5309e-09	-4.43916e-08	3.1286e-07	-3.1298e-07	1.028394e-07	-2.4195e-09	-1.007418e-07	3.1318e-07	-3.1316e-07
-0.23	3.057e-11	-4.451e-11	1.037e-11	3.1256e-07	-3.1248e-07	1.7214e-09	-1.0896e-10	-1.6183e-09	3.1206e-07	-3.1208e-07	4.461e-09	-2.3485e-10	-4.2358e-09	3.12e-07	-3.1202e-07	1.01929e-08	-4.8093e-10	-9.6261e-09	3.1224e-07	-3.1224e-07	2.27936e-08	-8.7898e-10	-2.18494e-08	3.1252e-07	-3.1272e-07	5.0223e-08	-1.4982e-09	-4.8269e-08	3.1284e-07	-3.1284e-07	1.124782e-07	-2.3762e-09	-1.10085e-07	3.1316e-07	-3.133e-07
-0.225	3.338e-11	-4.53e-11	8.47e-12	3.1234e-07	-3.123e-07	1.9281e-09	-9.598e-11	-1.8277e-09	3.1206e-07	-3.1204e-07	4.9449e-09	-2.2361e-10	-4.7243e-09	3.1222e-07	-3.1222e-07	1.14119e-08	-4.6332e-10	-1.08376e-08	3.1226e-07	-3.1226e-07	2.51554e-08	-8.556e-10	-2.4336e-08	3.1268e-07	-3.1242e-07	5.51844e-08	-1.4707e-09	-5.38296e-08	3.1306e-07	-3.1278e-07	1.2244e-07	-2.3393e-09	-1.2018e-07	3.1328e-07	-3.1326e-07
-0.22	3.071e-11	-4.54e-11	6.22e-12	3.123e-07	-3.123e-07	2.1673e-09	-9.722e-11	-2.0781e-09	3.1228e-07	-3.1214e-07	5.5673e-09	-2.2034e-10	-5.3426e-09	3.121e-07	-3.1212e-07	1.25256e-08	-4.4802e-10	-1.2133e-08	3.122e-07	-3.1224e-07	2.77064e-08	-8.4079e-10	-2.6771e-08	3.1252e-07	-3.126e-07	6.1442e-08	-1.4417e-09	-5.97768e-08	3.128e-07	-3.129e-07	1.3422e-07	-2.2978e-09	-1.3198e-07	3.1304e-07	-3.1322e-07
-0.215	3.423e-11	-3.652e-11	-8.4e-13	3.1232e-07	-3.123e-07	2.433e-09	-9.068e-11	-2.3394e-09	3.1204e-07	-3.1212e-07	6.2154e-09	-2.1258e-10	-5.9465e-09	3.1224e-07	-3.1214e-07	1.39498e-08	-4.3392e-10	-1.35694e-08	3.1216e-07	-3.1208e-07	3.07202e-08	-8.2061e-10	-2.99206e-08	3.1256e-07	-3.124e-07	6.71216e-08	-1.4194e-09	-6.59844e-08	3.1296e-07	-3.1268e-07	1.4852e-07	-2.2623e-09	-1.4512e-07	3.1322e-07	-3.1324e-07
-0.21	3.928e-11	-4.131e-11	-4.74e-12	3.1238e-07	-3.123e-07	2.7408e-09	-8.757e-11	-2.6514e-09	3.1204e-07	-3.1206e-07	6.9679e-09	-2.0263e-10	-6.7218e-09	3.1222e-07	-3.1206e-07	1.5526e-08	-4.2179e-10	-1.5139e-08	3.1234e-07	-3.1238e-07	3.39048e-08	-8.0193e-10	-3.33372e-08	3.1246e-07	-3.1258e-07	7.43836e-08	-1.3844e-09	-7.3189e-08	3.1292e-07	-3.128e-07	1.61e-07	-2.2167e-09	-1.5844e-07	3.132e-07	-3.1296e-07
-0.205	3.946e-11	-3.789e-11	-6.22e-12	3.1224e-07	-3.122e-07	3.0851e-09	-7.949e-11	-3.0068e-09	3.121e-07	-3.1208e-07	7.7981e-09	-1.9928e-10	-7.5956e-09	3.1226e-07	-3.1222e-07	1.7462e-08	-4.1062e-10	-1.6987e-08	3.122e-07	-3.122e-07	3.7961e-08	-7.8231e-10	-3.72072e-08	3.1242e-07	-3.1262e-07	8.20714e-08	-1.3633e-09	-8.08286e-08	3.1288e-07	-3.1286e-07	1.7764e-07	-2.1788e-09	-1.7448e-07	3.1306e-07	-3.1302e-07
-0.2	4.301e-11	-3.642e-11	-1.152e-11	3.124e-07	-3.1224e-07	3.4804e-09	-8.076e-11	-3.3977e-09	3.121e-07	-3.1208e-07	8.7688e-09	-1.9256e-10	-8.5519e-09	3.1228e-07	-3.1226e-07	1.93368e-08	-4.0076e-10	-1.89316e-08	3.122e-07	-3.1224e-07	4.2067e-08	-7.6713e-10	-4.13676e-08	3.126e-07	-3.1244e-07	9.02588e-08	-1.3322e-09	-8.9015e-08	3.1272e-07	-3.1268e-07	1.9532e-07	-2.1448e-09	-1.9234e-07	3.1316e-07	-3.13e-07
-0.195	4.717e-11	-3.185e-11	-2.194e-11	3.1252e-07	-3.1236e-07	3.9282e-09	-8.028e-11	-3.8562e-09	3.1206e-07	-3.1202e-07	9.8173e-09	-1.871e-10	-9.6543e-09	3.1232e-07	-3.1232e-07	2.17134e-08	-3.8949e-10	-2.1696e-08	3.122e-07	-3.1218e-07	4.67876e-08	-7.4866e-10	-4.58144e-08	3.1238e-07	-3.1256e-07	9.9818e-08	-1.3082e-09	-9.78192e-08	3.127e-07	-3.1268e-07	2.1458e-07	-2.1081e-09	-2.127e-07	3.1318e-07	-3.1296e-07
-0.19	5.602e-11	-3.256e-11	-2.485e-11	3.125e-07	-3.1224e-07	4.4492e-09	-7.423e-11	-4.3762e-09	3.1214e-07	-3.1202e-07	1.10978e-08	-1.7377e-10	-1.08976e-08	3.1224e-07	-3.1202e-07	2.42918e-08	-3.818e-10	-2.40308e-08	3.122e-07	-3.123e-07	5.24146e-08	-7.3246e-10	-5.11072e-08	3.1258e-07	-3.1248e-07	1.11353e-07	-1.2804e-09	-1.102786e-07	3.1286e-07	-3.127e-07	2.3788e-07	-2.0785e-09	-2.3322e-07	3.1304e-07	-3.1312e-07
-0.185	5.413e-11	-3.189e-11	-3.322e-11	3.1232e-07	-3.1224e-07	5.0278e-09	-7.139e-11	-4.9603e-09	3.1208e-07	-3.1198e-07	1.24106e-08	-1.7399e-10	-1.22848e-08	3.1216e-07	-3.122e-07	2.71684e-08	-3.6975e-10	-2.69276e-08	3.1224e-07	-3.1236e-07	5.77324e-08	-7.169e-10	-5.70228e-08	3.1238e-07	-3.1226e-07	1.2288e-07	-1.2588e-09	-1.2146e-07	3.1264e-07	-3.1266e-07	2.57e-07	-2.0398e-09	-2.555e-07	3.13e-07	-3.1302e-07
-0.18	6.054e-11	-2.302e-11	-4.671e-11	3.1234e-07	-3.1226e-07	5.719e-09	-6.791e-11	-5.6338e-09	3.121e-07	-3.1202e-07	1.39886e-08	-1.6141e-10	-1.38076e-08	3.1208e-07	-3.1208e-07	3.0374e-08	-3.6275e-10	-3.00226e-08	3.1214e-07	-3.1214e-07	6.46104e-08	-6.9918e-10	-6.3721e-08	3.1262e-07	-3.1238e-07	1.3598e-07	-1.2368e-09	-1.3508e-07	3.1268e-07	-3.1268e-07	2.8666e-07	-2.0018e-09	-2.8754e-07	3.1314e-07	-3.129e-07
-0.175	7.455e-11	-2.834e-11	-5.037e-11	3.1248e-07	-3.1242e-07	6.4554e-09	-6.812e-11	-6.3887e-09	3.1206e-07	-3.1198e-07	1.58172e-08	-1.5685e-10	-1.55728e-08	3.1224e-07	-3.1198e-07	3.42448e-08	-3.5257e-10	-3.37172e-08	3.1228e-07	-3.123e-07	7.19746e-08	-6.8124e-10	-7.14688e-08	3.1262e-07	-3.1256e-07	1.5098e-07	-1.2106e-09	-1.4966e-07	3.128e-07	-3.1272e-07	3.172e-07	-1.9674e-09	-3.1474e-07	3.1306e-07	-3.1296e-07
-0.17	7.968e-11	-2.346e-11	-6.056e-11	3.1248e-07	-3.1246e-07	7.3559e-09	-5.869e-11	-7.2964e-09	3.1226e-07	-3.1224e-07	1.7781e-08	-1.5191e-10	-1.76292e-08	3.1206e-07	-3.122e-07	3.86236e-08	-3.46e-10	-3.81382e-08	3.1234e-07	-3.1226e-07	8.05222e-08	-6.675e-10	-7.96202e-08	3.1252e-07	-3.1242e-07	1.6792e-07	-1.1853e-09	-1.675e-07	3.1262e-07	-3.1274e-07	3.5496e-07	-1.9304e-09	-3.5452e-07	3.1296e-07	-3.1284e-07
-0.165	9.253e-11	-2.341e-11	-7.082e-11	3.1232e-07	-3.1236e-07	8.3319e-09	-5.776e-11	-8.2625e-09	3.121e-07	-3.1206e-07	2.00352e-08	-1.4715e-10	-1.98736e-08	3.121e-07	-3.1208e-07	4.30122e-08	-3.3297e-10	-4.26882e-08	3.1216e-07	-3.1214e-07	9.00578e-08	-6.5314e-10	-8.97292e-08	3.1248e-07	-3.1244e-07	1.8884e-07	-1.1614e-09	-1.8774e-07	3.1276e-07	-3.128e-07	3.8836e-07	-1.9045e-09	-3.857e-07	3.1288e-07	-3.1284e-07
-0.16	1.0512e-10	-1.956e-11	-8.265e-11	3.1234e-07	-3.124e-07	9.4406e-09	-5.477e-11	-9.364e-09	3.1204e-07	-3.1202e-07	2.27208e-08	-1.4096e-10	-2.25452e-08	3.1218e-07	-3.1206e-07	4.84552e-08	-3.2449e-10	-4.81776e-08	3.1216e-07	-3.1216e-07	1.015322e-07	-6.371e-10	-1.001612e-07	3.1248e-07	-3.1248e-07	2.0848e-07	-1.1344e-09	-2.0746e-07	3.1272e-07	-3.1256e-07	4.3298e-07	-1.8712e-09	-4.2958e-07	3.1288e-07	-3.1292e-07
-0.155	1.2212e-10	-2.213e-11	-9.231e-11	3.1224e-07	-3.1218e-07	1.07048e-08	-5.311e-11	-1.06771e-08	3.1228e-07	-3.1226e-07	2.55022e-08	-1.3993e-10	-2.551e-08	3.1228e-07	-3.1222e-07	5.5031e-08	-3.1444e-10	-5.4077e-08	3.1234e-07	-3.1212e-07	1.12974e-07	-6.2388e-10	-1.12776e-07	3.1238e-07	-3.1234e-07	2.3316e-07	-1.116e-09	-2.3184e-07	3.1256e-07	-3.1262e-07	4.7268e-07	-1.8337e-09	-4.7006e-07	3.1276e-07	-3.1278e-07
-0.15	1.261e-10	-2.014e-11	-1.0506e-10	3.1228e-07	-3.1244e-07	1.2196e-08	-5.037e-11	-1.21448e-08	3.1212e-07	-3.1226e-07	2.9073e-08	-1.3294e-10	-2.8947e-08	3.1206e-07	-3.1226e-07	6.2218e-08	-3.0551e-10	-6.19068e-08	3.1218e-07	-3.1214e-07	1.2752e-07	-6.0836e-10	-1.2568e-07	3.123e-07	-3.124e-07	2.5852e-07	-1.0923e-09	-2.5772e-07	3.126e-07	-3.1254e-07	5.2108e-07	-1.8056e-09	-5.2192e-07	3.1302e-07	-3.1276e-07
-0.145	1.5e-10	-1.309e-11	-1.2178e-10	3.125e-07	-3.125e-07	1.3851e-08	-4.92e-11	-1.37958e-08	3.121e-07	-3.122e-07	3.28502e-08	-1.3055e-10	-3.28e-08	3.1212e-07	-3.1224e-07	6.929e-08	-2.9531e-10	-6.93024e-08	3.1238e-07	-3.1232e-07	1.4238e-07	-5.9451e-10	-1.4212e-07	3.1224e-07	-3.1214e-07	2.91e-07	-1.0745e-09	-2.912e-07	3.125e-07	-3.1272e-07	5.8586e-07	-1.7718e-09	-5.8004e-07	3.1282e-07	-3.1276e-07
-0.14	1.6052e-10	-1.719e-11	-1.4445e-10	3.125e-07	-3.1248e-07	1.57498e-08	-4.74e-11	-1.56968e-08	3.121e-07	-3.1222e-07	3.72168e-08	-1.233e-10	-3.71568e-08	3.1214e-07	-3.1204e-07	7.8121e-08	-2.8936e-10	-7.77486e-08	3.122e-07	-3.124e-07	1.5934e-07	-5.7617e-10	-1.5952e-07	3.124e-07	-3.123e-07	3.2168e-07	-1.0543e-09	-3.2088e-07	3.1248e-07	-3.1252e-07	6.455e-07	-1.7399e-09	-6.4184e-07	3.1296e-07	-3.1274e-07
-0.135	1.7342e-10	-1.312e-11	-1.5972e-10	3.1228e-07	-3.1228e-07	1.78896e-08	-4.392e-11	-1.78596e-08	3.122e-07	-3.1212e-07	4.21266e-08	-1.2192e-10	-4.20556e-08	3.1224e-07	-3.12e-07	8.80354e-08	-2.774e-10	-8.80462e-08	3.1212e-07	-3.1232e-07	1.7816e-07	-5.6675e-10	-1.775e-07	3.1236e-07	-3.1244e-07	3.5992e-07	-1.029e-09	-3.5822e-07	3.1252e-07	-3.1272e-07	7.1736e-07	-1.7143e-09	-7.1522e-07	3.1298e-07	-3.1294e-07
-0.13	1.9814e-10	-1.136e-11	-1.8573e-10	3.122e-07	-3.1218e-07	2.03774e-08	-4.257e-11	-2.02728e-08	3.1228e-07	-3.1202e-07	4.77594e-08	-1.1384e-10	-4.7604e-08	3.1198e-07	-3.1202e-07	9.91358e-08	-2.6972e-10	-9.89734e-08	3.123e-07	-3.1212e-07	2.0118e-07	-5.4678e-10	-1.9928e-07	3.122e-07	-3.1222e-07	4.0182e-07	-1.0114e-09	-4.0244e-07	3.1256e-07	-3.1252e-07	8.0354e-07	-1.68e-09	-7.9194e-07	3.1288e-07	-3.1286e-07
-0.125	2.1642e-10	-9.76e-12	-2.1215e-10	3.1228e-07	-3.1224e-07	2.31218e-08	-4.022e-11	-2.31084e-08	3.1198e-07	-3.122e-07	5.40368e-08	-1.1247e-10	-5.38746e-08	3.1228e-07	-3.1226e-07	1.116242e-07	-2.636e-10	-1.116042e-07	3.1214e-07	-3.123e-07	2.2552e-07	-5.3376e-10	-2.2276e-07	3.1226e-07	-3.1224e-07	4.4934e-07	-9.915e-10	-4.5312e-07	3.1246e-07	-3.1242e-07	8.9252e-07	-1.6568e-09	-8.8746e-07	3.1292e-07	-3.1296e-07
-0.12	2.5895e-10	-1.319e-11	-2.4301e-10	3.1232e-07	-3.1224e-07	2.6316e-08	-3.681e-11	-2.63062e-08	3.121e-07	-3.1206e-07	6.09546e-08	-1.0821e-10	-6.08484e-08	3.121e-07	-3.1222e-07	1.2656e-07	-2.5321e-10	-1.2624e-07	3.1216e-07	-3.1214e-07	2.5534e-07	-5.2503e-10	-2.5256e-07	3.1222e-07	-3.1224e-07	5.0242e-07	-9.6639e-10	-5.012e-07	3.1268e-07	-3.1272e-07	9.9616e-07	-1.6243e-09	-9.8252e-07	3.13e-07	-3.1276e-07
-0.115	2.8637e-10	-1.025e-11	-2.7961e-10	3.122e-07	-3.1224e-07	2.9948e-08	-3.359e-11	-2.99098e-08	3.1226e-07	-3.1228e-07	6.90586e-08	-1.0384e-10	-6.9302e-08	3.1202e-07	-3.122e-07	1.4264e-07	-2.5328e-10	-1.435e-07	3.1234e-07	-3.1214e-07	2.8432e-07	-5.0935e-10	-2.838e-07	3.1228e-07	-3.1218e-07	5.6224e-07	-9.522e-10	-5.6052e-07	3.1248e-07	-3.1242e-07	1.09298e-06	-1.5858e-09	-1.08848e-06	3.1292e-07	-3.1266e-07
-0.11	3.4813e-10	-7.14e-12	-3.0808e-10	3.1244e-07	-3.1234e-07	3.41056e-08	-3.448e-11	-3.40428e-08	3.1208e-07	-3.1206e-07	7.85766e-08	-9.776e-11	-7.84142e-08	3.1214e-07	-3.12e-07	1.622e-07	-2.3942e-10	-1.6212e-07	3.121e-07	-3.1208e-07	3.2282e-07	-5.0019e-10	-3.2242e-07	3.1218e-07	-3.1236e-07	6.3906e-07	-9.2514e-10	-6.2752e-07	3.1268e-07	-3.1266e-07	1.2216e-06	-1.5624e-09	-1.2185e-06	3.1286e-07	-3.1284e-07
-0.105	3.8281e-10	-1.111e-11	-3.549e-10	3.1244e-07	-3.1224e-07	3.87326e-08	-2.878e-11	-3.8713e-08	3.1224e-07	-3.1204e-07	8.94498e-08	-9.852e-11	-8.88356e-08	3.123e-07	-3.1212e-07	1.8318e-07	-2.344e-10	-1.8218e-07	3.122e-07	-3.1208e-07	3.6054e-07	-4.8829e-10	-3.617e-07	3.1234e-07	-3.1218e-07	7.0588e-07	-9.0521e-10	-7.0774e-07	3.1244e-07	-3.126e-07	1.3585e-06	-1.5307e-09	-1.368e-06	3.1268e-07	-3.1274e-07
-0.1	4.1437e-10	-8.66e-12	-4.5464e-10	3.123e-07	-3.1218e-07	4.42432e-08	-2.837e-11	-4.41406e-08	3.1214e-07	-3.1202e-07	1.011978e-07	-8.997e-11	-1.016394e-07	3.1206e-07	-3.12e-07	2.0792e-07	-2.2802e-10	-2.0768e-07	3.1228e-07	-3.1208e-07	4.0696e-07	-4.7315e-10	-4.084e-07	3.124e-07	-3.1216e-07	7.9228e-07	-8.9274e-10	-7.8926e-07	3.1244e-07	-3.1244e-07	1.5253e-06	-1.5083e-09	-1.5222e-06	3.1276e-07	-3.1274e-07
-0.095	4.8796e-10	-5.4e-12	-4.7886e-10	3.1242e-07	-3.1236e-07	5.02962e-08	-2.784e-11	-5.01526e-08	3.1206e-07	-3.1208e-07	1.1512e-07	-9.224e-11	-1.1522e-07	3.1204e-07	-3.12e-07	2.3366e-07	-2.1399e-10	-2.3356e-07	3.1234e-07	-3.1212e-07	4.5842e-07	-4.6051e-10	-4.5612e-07	3.1214e-07	-3.1238e-07	8.9008e-07	-8.6814e-10	-8.8522e-07	3.1268e-07	-3.1268e-07	1.6877e-06	-1.481e-09	-1.6832e-06	3.1266e-07	-3.1258e-07
-0.09	5.5073e-10	-4.94e-12	-5.3526e-10	3.122e-07	-3.1242e-07	5.72994e-08	-2.58e-11	-5.72232e-08	3.1206e-07	-3.1212e-07	1.3058e-07	-8.614e-11	-1.3058e-07	3.122e-07	-3.119e-07	2.6466e-07	-2.1227e-10	-2.6416e-07	3.1212e-07	-3.1208e-07	5.1466e-07	-4.4803e-10	-5.1278e-07	3.1216e-07	-3.1218e-07	1.00102e-06	-8.5499e-10	-9.907e-07	3.1268e-07	-3.1236e-07	1.8884e-06	-1.4485e-09	-1.8749e-06	3.1268e-07	-3.1264e-07
-0.085	6.2601e-10	-8.31e-12	-6.013e-10	3.1238e-07	-3.1224e-07	6.53238e-08	-2.192e-11	-6.52114e-08	3.1202e-07	-3.1202e-07	1.4804e-07	-8.31e-11	-1.4762e-07	3.1216e-07	-3.1208e-07	2.9796e-07	-2.0721e-10	-2.9776e-07	3.1216e-07	-3.1206e-07	5.8072e-07	-4.3661e-10	-5.7974e-07	3.1222e-07	-3.1218e-07	1.11056e-06	-8.3884e-10	-1.11156e-06	3.126e-07	-3.1242e-07	2.109e-06	-1.431e-09	-2.0918e-06	3.1286e-07	-3.128e-07
-0.08	7.2619e-10	-3.7e-12	-6.755e-10	3.1244e-07	-3.1238e-07	7.44612e-08	-2.503e-11	-7.43034e-08	3.123e-07	-3.1206e-07	1.6918e-07	-7.72e-11	-1.687e-07	3.1198e-07	-3.1214e-07	3.3868e-07	-1.9951e-10	-3.3972e-07	3.1228e-07	-3.1226e-07	6.516e-07	-4.2706e-10	-6.5416e-07	3.1224e-07	-3.1218e-07	1.2544e-06	-8.1464e-10	-1.2501e-06	3.1268e-07	-3.1262e-07	2.3435e-06	-1.3963e-09	-2.3466e-06	3.1278e-07	-3.128e-07
-0.075	8.0382e-10	-4.98e-12	-8.1785e-10	3.1228e-07	-3.1218e-07	8.51242e-08	-1.758e-11	-8.51632e-08	3.1206e-07	-3.1212e-07	1.9274e-07	-6.864e-11	-1.9168e-07	3.1216e-07	-3.1202e-07	3.8142e-07	-1.9581e-10	-3.8234e-07	3.121e-07	-3.1216e-07	7.3698e-07	-4.2213e-10	-7.4014e-07	3.1226e-07	-3.1246e-07	1.4075e-06	-7.9697e-10	-1.4027e-06	3.1246e-07	-3.126e-07	2.6163e-06	-1.3708e-09	-2.6167e-06	3.128e-07	-3.1264e-07
-0.07	9.2603e-10	-6.65e-12	-9.7017e-10	3.1228e-07	-3.122e-07	9.67096e-08	-1.887e-11	-9.65678e-08	3.1214e-07	-3.1202e-07	2.1894e-07	-7.304e-11	-2.1826e-07	3.1222e-07	-3.1224e-07	4.355e-07	-1.8664e-10	-4.3554e-07	3.121e-07	-3.1224e-07	8.3282e-07	-4.083e-10	-8.2858e-07	3.1218e-07	-3.1224e-07	1.5779e-06	-7.884e-10	-1.5761e-06	3.1238e-07	-3.1256e-07	2.9237e-06	-1.3543e-09	-2.9165e-06	3.1282e-07	-3.126e-07
