Vg	Id,Vd=0V	Ig,Vd=0V	Is,Vd=0V	Iavdd,Vd=0V	Ignd,Vd=0V	Id,Vd=0.15V	Ig,Vd=0.15V	Is,Vd=0.15V	Iavdd,Vd=0.15V	Ignd,Vd=0.15V	Id,Vd=0.3V	Ig,Vd=0.3V	Is,Vd=0.3V	Iavdd,Vd=0.3V	Ignd,Vd=0.3V	Id,Vd=0.45V	Ig,Vd=0.45V	Is,Vd=0.45V	Iavdd,Vd=0.45V	Ignd,Vd=0.45V	Id,Vd=0.6V	Ig,Vd=0.6V	Is,Vd=0.6V	Iavdd,Vd=0.6V	Ignd,Vd=0.6V	Id,Vd=0.75V	Ig,Vd=0.75V	Is,Vd=0.75V	Iavdd,Vd=0.75V	Ignd,Vd=0.75V	Id,Vd=0.9V	Ig,Vd=0.9V	Is,Vd=0.9V	Iavdd,Vd=0.9V	Ignd,Vd=0.9V
-0.3	2.017e-11	-5.172e-11	2.077e-11	3.5916e-07	-3.5916e-07	3.7065e-10	-9.676e-11	-5.436e-11	3.5892e-07	-3.5912e-07	9.3846e-10	-1.8311e-10	-1.2055e-10	3.5918e-07	-3.5974e-07	2.0797e-09	-3.3474e-10	-2.4878e-10	3.5918e-07	-3.6064e-07	4.0994e-09	-5.7752e-10	-5.2093e-10	3.5932e-07	-3.6222e-07	7.6006e-09	-9.374e-10	-1.0407e-09	3.598e-07	-3.6534e-07	1.37626e-08	-1.4358e-09	-2.1011e-09	3.5986e-07	-3.7006e-07
-0.295	1.737e-11	-4.957e-11	1.671e-11	3.5916e-07	-3.591e-07	3.8835e-10	-8.952e-11	-5.653e-11	3.5896e-07	-3.5918e-07	9.272e-10	-1.7636e-10	-1.4017e-10	3.5914e-07	-3.598e-07	2.0608e-09	-3.2891e-10	-2.8456e-10	3.5912e-07	-3.605e-07	4.1393e-09	-5.6106e-10	-5.8493e-10	3.594e-07	-3.6226e-07	7.6751e-09	-9.1528e-10	-1.1719e-09	3.5974e-07	-3.6534e-07	1.3939e-08	-1.4081e-09	-2.3453e-09	3.598e-07	-3.6994e-07
-0.29	2.335e-11	-4.489e-11	1.857e-11	3.5922e-07	-3.5912e-07	3.9949e-10	-8.733e-11	-7.584e-11	3.5884e-07	-3.5908e-07	9.5152e-10	-1.6903e-10	-1.6122e-10	3.5926e-07	-3.5986e-07	2.1297e-09	-3.1876e-10	-3.2285e-10	3.5916e-07	-3.6054e-07	4.1601e-09	-5.5281e-10	-6.6193e-10	3.5928e-07	-3.6216e-07	7.7745e-09	-9.0182e-10	-1.3086e-09	3.597e-07	-3.6522e-07	1.41354e-08	-1.3844e-09	-2.6075e-09	3.5986e-07	-3.6992e-07
-0.285	1.689e-11	-4.518e-11	1.127e-11	3.592e-07	-3.5908e-07	4.0101e-10	-8.366e-11	-8.438e-11	3.589e-07	-3.5912e-07	9.6265e-10	-1.6341e-10	-1.8467e-10	3.5922e-07	-3.5982e-07	2.1729e-09	-3.078e-10	-3.6915e-10	3.5912e-07	-3.6064e-07	4.2101e-09	-5.3849e-10	-7.4134e-10	3.5922e-07	-3.6218e-07	7.9563e-09	-8.8355e-10	-1.4678e-09	3.5974e-07	-3.653e-07	1.45118e-08	-1.361e-09	-2.9058e-09	3.597e-07	-3.6984e-07
-0.28	1.593e-11	-3.877e-11	1.8e-11	3.592e-07	-3.5908e-07	4.0098e-10	-7.95e-11	-1.0033e-10	3.5902e-07	-3.592e-07	9.7425e-10	-1.5926e-10	-2.0906e-10	3.5916e-07	-3.5978e-07	2.1422e-09	-2.9872e-10	-4.2281e-10	3.5926e-07	-3.6052e-07	4.2888e-09	-5.2862e-10	-8.4093e-10	3.5924e-07	-3.6212e-07	8.0566e-09	-8.6707e-10	-1.6428e-09	3.5968e-07	-3.6526e-07	1.47858e-08	-1.3424e-09	-3.2453e-09	3.597e-07	-3.6978e-07
-0.275	2.068e-11	-3.762e-11	1.119e-11	3.5916e-07	-3.5914e-07	4.0847e-10	-7.711e-11	-1.1648e-10	3.5896e-07	-3.5918e-07	1.0379e-09	-1.5346e-10	-2.4369e-10	3.5916e-07	-3.5984e-07	2.1976e-09	-2.8741e-10	-4.7685e-10	3.5908e-07	-3.6054e-07	4.3893e-09	-5.1509e-10	-9.4102e-10	3.5926e-07	-3.6218e-07	8.2523e-09	-8.489e-10	-1.8399e-09	3.5966e-07	-3.6512e-07	1.5144e-08	-1.322e-09	-3.6142e-09	3.596e-07	-3.698e-07
-0.27	1.389e-11	-3.417e-11	1.318e-11	3.591e-07	-3.5918e-07	4.5142e-10	-6.977e-11	-1.3345e-10	3.5894e-07	-3.591e-07	1.08362e-09	-1.478e-10	-2.7398e-10	3.5924e-07	-3.5988e-07	2.2487e-09	-2.8345e-10	-5.4351e-10	3.5906e-07	-3.6048e-07	4.57e-09	-5.0596e-10	-1.06413e-09	3.5926e-07	-3.621e-07	8.4454e-09	-8.3647e-10	-2.0712e-09	3.5962e-07	-3.6502e-07	1.54454e-08	-1.301e-09	-4.0202e-09	3.5964e-07	-3.6968e-07
-0.265	1.609e-11	-3.022e-11	1.06e-11	3.5922e-07	-3.5924e-07	4.4214e-10	-6.877e-11	-1.6037e-10	3.5896e-07	-3.5924e-07	1.10522e-09	-1.4315e-10	-3.1639e-10	3.5922e-07	-3.598e-07	2.3739e-09	-2.7623e-10	-6.1698e-10	3.5908e-07	-3.6046e-07	4.6268e-09	-4.941e-10	-1.1955e-09	3.5922e-07	-3.621e-07	8.6717e-09	-8.1875e-10	-2.3157e-09	3.5962e-07	-3.6516e-07	1.58842e-08	-1.2824e-09	-4.4889e-09	3.5954e-07	-3.6964e-07
-0.26	1.296e-11	-3.16e-11	8.99e-12	3.5916e-07	-3.5914e-07	4.6448e-10	-6.316e-11	-1.7628e-10	3.5898e-07	-3.592e-07	1.13484e-09	-1.3961e-10	-3.6005e-10	3.5916e-07	-3.5976e-07	2.4498e-09	-2.7135e-10	-7.0065e-10	3.591e-07	-3.6044e-07	4.8257e-09	-4.8423e-10	-1.3505e-09	3.5918e-07	-3.6214e-07	8.9749e-09	-8.0418e-10	-2.6059e-09	3.596e-07	-3.6492e-07	1.63884e-08	-1.2607e-09	-4.997e-09	3.595e-07	-3.6956e-07
-0.255	2.072e-11	-2.874e-11	1.31e-11	3.592e-07	-3.5906e-07	5.1204e-10	-6.436e-11	-2.0956e-10	3.5896e-07	-3.5924e-07	1.18e-09	-1.3383e-10	-4.1401e-10	3.5916e-07	-3.5982e-07	2.541e-09	-2.6262e-10	-7.9446e-10	3.5906e-07	-3.6038e-07	4.9277e-09	-4.7374e-10	-1.5237e-09	3.5914e-07	-3.6206e-07	9.3146e-09	-7.8867e-10	-2.9124e-09	3.594e-07	-3.6488e-07	1.69414e-08	-1.24e-09	-5.5862e-09	3.5956e-07	-3.6954e-07
-0.25	1.554e-11	-2.972e-11	4.31e-12	3.5916e-07	-3.592e-07	5.4127e-10	-6.131e-11	-2.3493e-10	3.5898e-07	-3.5916e-07	1.2306e-09	-1.2997e-10	-4.713e-10	3.5912e-07	-3.5972e-07	2.6311e-09	-2.577e-10	-9.0136e-10	3.5904e-07	-3.605e-07	5.1431e-09	-4.6173e-10	-1.7161e-09	3.591e-07	-3.6198e-07	9.6591e-09	-7.7536e-10	-3.2774e-09	3.5932e-07	-3.649e-07	1.74368e-08	-1.2215e-09	-6.227e-09	3.594e-07	-3.693e-07
-0.245	1.327e-11	-2.545e-11	1.2e-11	3.592e-07	-3.5908e-07	5.8084e-10	-5.685e-11	-2.7139e-10	3.5898e-07	-3.591e-07	1.319e-09	-1.2388e-10	-5.3692e-10	3.591e-07	-3.5978e-07	2.7043e-09	-2.5129e-10	-1.02799e-09	3.5904e-07	-3.6038e-07	5.3432e-09	-4.5396e-10	-1.9404e-09	3.5904e-07	-3.6194e-07	1.00466e-08	-7.6243e-10	-3.6819e-09	3.5924e-07	-3.6488e-07	1.81232e-08	-1.201e-09	-6.9734e-09	3.5942e-07	-3.6944e-07
-0.24	1.791e-11	-2.604e-11	7.22e-12	3.5928e-07	-3.5926e-07	6.098e-10	-5.627e-11	-3.116e-10	3.5902e-07	-3.5916e-07	1.3819e-09	-1.212e-10	-6.1494e-10	3.5922e-07	-3.5984e-07	2.8268e-09	-2.4375e-10	-1.1675e-09	3.5902e-07	-3.604e-07	5.5855e-09	-4.4045e-10	-2.1874e-09	3.59e-07	-3.6192e-07	1.04904e-08	-7.4525e-10	-4.1256e-09	3.5936e-07	-3.6474e-07	1.89426e-08	-1.181e-09	-7.7936e-09	3.5946e-07	-3.693e-07
-0.235	1.247e-11	-2.635e-11	7.21e-12	3.5916e-07	-3.5908e-07	6.5952e-10	-5.058e-11	-3.5553e-10	3.5892e-07	-3.5912e-07	1.455e-09	-1.1581e-10	-6.9778e-10	3.5914e-07	-3.5972e-07	2.9712e-09	-2.3511e-10	-1.3185e-09	3.5904e-07	-3.6046e-07	5.8927e-09	-4.321e-10	-2.4741e-09	3.5916e-07	-3.6202e-07	1.08643e-08	-7.3274e-10	-4.64e-09	3.592e-07	-3.647e-07	1.9818e-08	-1.1586e-09	-8.7135e-09	3.594e-07	-3.6926e-07
-0.23	1.842e-11	-2.19e-11	5.34e-12	3.5914e-07	-3.5914e-07	6.8041e-10	-5.098e-11	-4.1201e-10	3.589e-07	-3.5902e-07	1.5466e-09	-1.1269e-10	-7.9655e-10	3.5902e-07	-3.5968e-07	3.2068e-09	-2.2906e-10	-1.4931e-09	3.59e-07	-3.6044e-07	6.1765e-09	-4.2098e-10	-2.7831e-09	3.591e-07	-3.6192e-07	1.14849e-08	-7.1702e-10	-5.1957e-09	3.5928e-07	-3.6478e-07	2.07986e-08	-1.1381e-09	-9.7742e-09	3.5944e-07	-3.6922e-07
-0.225	1.608e-11	-2.453e-11	3.34e-12	3.5922e-07	-3.5908e-07	7.6114e-10	-4.718e-11	-4.634e-10	3.5902e-07	-3.5914e-07	1.6691e-09	-1.085e-10	-9.0178e-10	3.592e-07	-3.5968e-07	3.3456e-09	-2.2303e-10	-1.6953e-09	3.5892e-07	-3.6032e-07	6.5056e-09	-4.1557e-10	-3.1475e-09	3.5902e-07	-3.6198e-07	1.21124e-08	-7.0373e-10	-5.8683e-09	3.5926e-07	-3.6482e-07	2.20636e-08	-1.1176e-09	-1.09417e-08	3.5926e-07	-3.6942e-07
-0.22	2.11e-11	-2.082e-11	6.15e-12	3.5924e-07	-3.5914e-07	8.2128e-10	-4.71e-11	-5.3647e-10	3.5898e-07	-3.5922e-07	1.7599e-09	-1.0615e-10	-1.03186e-09	3.591e-07	-3.597e-07	3.5741e-09	-2.1619e-10	-1.9205e-09	3.5904e-07	-3.6032e-07	6.9656e-09	-4.0482e-10	-3.5418e-09	3.5902e-07	-3.62e-07	1.28462e-08	-6.9244e-10	-6.6075e-09	3.592e-07	-3.6478e-07	2.3364e-08	-1.103e-09	-1.22906e-08	3.5936e-07	-3.692e-07
-0.215	1.532e-11	-2.315e-11	-1.99e-12	3.5916e-07	-3.591e-07	8.9255e-10	-4.6e-11	-6.0695e-10	3.5896e-07	-3.5916e-07	1.8989e-09	-1.0309e-10	-1.1673e-09	3.5916e-07	-3.5962e-07	3.8928e-09	-2.1348e-10	-2.1807e-09	3.5896e-07	-3.6038e-07	7.4173e-09	-3.9641e-10	-4.0085e-09	3.5902e-07	-3.6198e-07	1.36564e-08	-6.7726e-10	-7.4219e-09	3.5922e-07	-3.647e-07	2.48276e-08	-1.0858e-09	-1.37708e-08	3.5926e-07	-3.6916e-07
-0.21	1.409e-11	-1.818e-11	2.16e-12	3.5908e-07	-3.5906e-07	9.7008e-10	-4.246e-11	-6.919e-10	3.5914e-07	-3.5928e-07	2.0601e-09	-9.794e-11	-1.3298e-09	3.5906e-07	-3.5974e-07	4.1587e-09	-2.0982e-10	-2.4772e-09	3.5898e-07	-3.6038e-07	7.8906e-09	-3.8771e-10	-4.5146e-09	3.5902e-07	-3.6192e-07	1.453e-08	-6.6694e-10	-8.3467e-09	3.5914e-07	-3.6466e-07	2.63876e-08	-1.0657e-09	-1.54388e-08	3.5934e-07	-3.6916e-07
-0.205	2.001e-11	-1.814e-11	-5.67e-12	3.5926e-07	-3.5918e-07	1.05461e-09	-4.432e-11	-7.9525e-10	3.5916e-07	-3.593e-07	2.2354e-09	-9.526e-11	-1.5102e-09	3.591e-07	-3.5966e-07	4.4873e-09	-2.0553e-10	-2.806e-09	3.5902e-07	-3.6038e-07	8.4052e-09	-3.7947e-10	-5.1134e-09	3.5902e-07	-3.6198e-07	1.5619e-08	-6.512e-10	-9.3894e-09	3.592e-07	-3.6478e-07	2.8201e-08	-1.0486e-09	-1.73316e-08	3.5932e-07	-3.69e-07
-0.2	1.446e-11	-1.571e-11	-6.52e-12	3.5916e-07	-3.5908e-07	1.1682e-09	-3.618e-11	-9.069e-10	3.591e-07	-3.5946e-07	2.4708e-09	-9.167e-11	-1.7178e-09	3.5906e-07	-3.5962e-07	4.853e-09	-1.9554e-10	-3.1729e-09	3.5902e-07	-3.605e-07	9.1185e-09	-3.703e-10	-5.7867e-09	3.5914e-07	-3.6194e-07	1.67734e-08	-6.4106e-10	-1.05784e-08	3.5912e-07	-3.6462e-07	3.03362e-08	-1.0364e-09	-1.9423e-08	3.5926e-07	-3.6908e-07
-0.195	2.245e-11	-1.263e-11	-5.96e-12	3.5916e-07	-3.5898e-07	1.2883e-09	-3.852e-11	-1.04176e-09	3.5912e-07	-3.5926e-07	2.6679e-09	-9.02e-11	-1.9617e-09	3.5914e-07	-3.5972e-07	5.27e-09	-1.9176e-10	-3.6186e-09	3.5922e-07	-3.6058e-07	9.8319e-09	-3.615e-10	-6.5527e-09	3.5902e-07	-3.6194e-07	1.81198e-08	-6.2648e-10	-1.19702e-08	3.592e-07	-3.646e-07	3.2686e-08	-1.0107e-09	-2.18412e-08	3.5926e-07	-3.6912e-07
-0.19	2.507e-11	-1.817e-11	-1.072e-11	3.5906e-07	-3.5912e-07	1.4394e-09	-3.477e-11	-1.176e-09	3.5926e-07	-3.594e-07	2.9359e-09	-8.44e-11	-2.2243e-09	3.5918e-07	-3.5974e-07	5.7789e-09	-1.849e-10	-4.1014e-09	3.592e-07	-3.6066e-07	1.06503e-08	-3.5659e-10	-7.4251e-09	3.591e-07	-3.6204e-07	1.9712e-08	-6.1429e-10	-1.34654e-08	3.5914e-07	-3.6456e-07	3.5362e-08	-1.0026e-09	-2.44714e-08	3.5926e-07	-3.6908e-07
-0.185	3.165e-11	-1.607e-11	-1.197e-11	3.591e-07	-3.5906e-07	1.6031e-09	-3.46e-11	-1.3495e-09	3.5924e-07	-3.594e-07	3.2488e-09	-8.358e-11	-2.5447e-09	3.5906e-07	-3.5968e-07	6.3177e-09	-1.7994e-10	-4.653e-09	3.5914e-07	-3.6056e-07	1.16622e-08	-3.4577e-10	-8.4042e-09	3.59e-07	-3.6186e-07	2.13054e-08	-6.0537e-10	-1.52148e-08	3.5916e-07	-3.6458e-07	3.83888e-08	-9.7988e-10	-2.74818e-08	3.5918e-07	-3.6902e-07
-0.18	2.881e-11	-1.591e-11	-1.707e-11	3.592e-07	-3.5912e-07	1.7903e-09	-2.961e-11	-1.5328e-09	3.592e-07	-3.5932e-07	3.5923e-09	-7.892e-11	-2.8944e-09	3.5904e-07	-3.5966e-07	6.9266e-09	-1.7537e-10	-5.2649e-09	3.5916e-07	-3.6056e-07	1.2794e-08	-3.3642e-10	-9.4947e-09	3.5902e-07	-3.6198e-07	2.3231e-08	-5.9395e-10	-1.7137e-08	3.5914e-07	-3.6466e-07	4.1754e-08	-9.6507e-10	-3.08626e-08	3.593e-07	-3.6914e-07
-0.175	2.436e-11	-1.091e-11	-1.92e-11	3.5914e-07	-3.5912e-07	2.0173e-09	-3.22e-11	-1.753e-09	3.593e-07	-3.5944e-07	3.9782e-09	-7.71e-11	-3.3027e-09	3.5906e-07	-3.5966e-07	7.5882e-09	-1.7252e-10	-5.9953e-09	3.5926e-07	-3.606e-07	1.40076e-08	-3.3269e-10	-1.0755e-08	3.5902e-07	-3.6186e-07	2.54688e-08	-5.7956e-10	-1.937e-08	3.5908e-07	-3.6462e-07	4.55522e-08	-9.456e-10	-3.47022e-08	3.5932e-07	-3.6916e-07
-0.17	2.992e-11	-1.022e-11	-2.48e-11	3.59e-07	-3.5906e-07	2.2494e-09	-2.904e-11	-1.9917e-09	3.5912e-07	-3.5932e-07	4.4305e-09	-7.234e-11	-3.7346e-09	3.5916e-07	-3.5966e-07	8.4516e-09	-1.6845e-10	-6.8129e-09	3.5916e-07	-3.6048e-07	1.54208e-08	-3.2344e-10	-1.21686e-08	3.591e-07	-3.62e-07	2.78338e-08	-5.7074e-10	-2.17976e-08	3.5914e-07	-3.6454e-07	4.9751e-08	-9.2963e-10	-3.90666e-08	3.5912e-07	-3.69e-07
-0.165	2.73e-11	-8.43e-12	-2.888e-11	3.5906e-07	-3.5896e-07	2.5601e-09	-2.906e-11	-2.2872e-09	3.591e-07	-3.5938e-07	5.0088e-09	-7.094e-11	-4.2655e-09	3.5906e-07	-3.5968e-07	9.3103e-09	-1.5917e-10	-7.7536e-09	3.591e-07	-3.6058e-07	1.7124e-08	-3.1548e-10	-1.38076e-08	3.5896e-07	-3.62e-07	3.06982e-08	-5.592e-10	-2.46382e-08	3.5906e-07	-3.6454e-07	5.46502e-08	-9.1687e-10	-4.3983e-08	3.5916e-07	-3.6896e-07
-0.16	4.155e-11	-6.6e-12	-3.384e-11	3.5916e-07	-3.591e-07	2.8815e-09	-2.729e-11	-2.603e-09	3.5906e-07	-3.5938e-07	5.5657e-09	-7.069e-11	-4.8447e-09	3.5918e-07	-3.5968e-07	1.0409e-08	-1.54e-10	-8.8042e-09	3.592e-07	-3.6052e-07	1.8932e-08	-3.1003e-10	-1.56202e-08	3.5898e-07	-3.6186e-07	3.38508e-08	-5.4758e-10	-2.7764e-08	3.5914e-07	-3.6454e-07	5.99962e-08	-8.9948e-10	-4.9448e-08	3.591e-07	-3.6878e-07
-0.155	4.208e-11	-1.004e-11	-3.978e-11	3.5914e-07	-3.5912e-07	3.2369e-09	-2.656e-11	-2.9861e-09	3.5926e-07	-3.593e-07	6.2802e-09	-6.659e-11	-5.5407e-09	3.592e-07	-3.5972e-07	1.16004e-08	-1.5603e-10	-1.00016e-08	3.5914e-07	-3.6052e-07	2.09776e-08	-3.0251e-10	-1.76882e-08	3.5906e-07	-3.6196e-07	3.74154e-08	-5.3862e-10	-3.13782e-08	3.5908e-07	-3.6468e-07	6.63514e-08	-8.832e-10	-5.56592e-08	3.5938e-07	-3.6906e-07
-0.15	4.832e-11	-8.78e-12	-4.152e-11	3.5916e-07	-3.5912e-07	3.6442e-09	-2.508e-11	-3.3991e-09	3.5914e-07	-3.594e-07	7.0406e-09	-6.672e-11	-6.3075e-09	3.5896e-07	-3.5954e-07	1.29392e-08	-1.4663e-10	-1.13822e-08	3.591e-07	-3.6056e-07	2.32912e-08	-2.9417e-10	-2.00526e-08	3.5918e-07	-3.6198e-07	4.1413e-08	-5.2768e-10	-3.53968e-08	3.5908e-07	-3.6448e-07	7.33178e-08	-8.6912e-10	-6.25792e-08	3.5936e-07	-3.692e-07
-0.145	5.375e-11	-9.3e-12	-4.708e-11	3.5906e-07	-3.5906e-07	4.1294e-09	-2.016e-11	-3.8826e-09	3.5916e-07	-3.5942e-07	7.8948e-09	-6.09e-11	-7.1761e-09	3.5892e-07	-3.5948e-07	1.45444e-08	-1.4188e-10	-1.30004e-08	3.5908e-07	-3.6052e-07	2.59462e-08	-2.8799e-10	-2.27262e-08	3.5902e-07	-3.6188e-07	4.60348e-08	-5.155e-10	-4.00338e-08	3.5912e-07	-3.6444e-07	8.12208e-08	-8.5156e-10	-7.05834e-08	3.5932e-07	-3.6896e-07
-0.14	6.075e-11	-5.72e-12	-5.535e-11	3.5914e-07	-3.5914e-07	4.676e-09	-2.21e-11	-4.4331e-09	3.5914e-07	-3.5934e-07	8.8652e-09	-6.195e-11	-8.2021e-09	3.5898e-07	-3.5954e-07	1.62742e-08	-1.4107e-10	-1.47522e-08	3.5896e-07	-3.6036e-07	2.90272e-08	-2.8194e-10	-2.57234e-08	3.5888e-07	-3.6182e-07	5.12238e-08	-5.0717e-10	-4.51352e-08	3.5906e-07	-3.6456e-07	8.9923e-08	-8.428e-10	-7.93032e-08	3.5944e-07	-3.6904e-07
-0.135	6.975e-11	-5.57e-12	-6.661e-11	3.5908e-07	-3.5898e-07	5.3295e-09	-2.11e-11	-5.06e-09	3.5906e-07	-3.5942e-07	1.00699e-08	-5.612e-11	-9.3395e-09	3.5896e-07	-3.5968e-07	1.836e-08	-1.3545e-10	-1.67626e-08	3.5886e-07	-3.6022e-07	3.23882e-08	-2.7622e-10	-2.91778e-08	3.59e-07	-3.6196e-07	5.72802e-08	-4.9635e-10	-5.1116e-08	3.5908e-07	-3.6452e-07	1.001998e-07	-8.2421e-10	-8.94634e-08	3.5938e-07	-3.6918e-07
-0.13	7.381e-11	-2.57e-12	-7.904e-11	3.591e-07	-3.5908e-07	6.0183e-09	-2.298e-11	-5.7577e-09	3.5922e-07	-3.5932e-07	1.13372e-08	-5.629e-11	-1.06386e-08	3.5888e-07	-3.5946e-07	2.0665e-08	-1.2826e-10	-1.91128e-08	3.5898e-07	-3.6036e-07	3.61892e-08	-2.684e-10	-3.30898e-08	3.5902e-07	-3.6184e-07	6.37744e-08	-4.8449e-10	-5.77654e-08	3.591e-07	-3.645e-07	1.113812e-07	-8.0854e-10	-1.006354e-07	3.5916e-07	-3.6886e-07
-0.125	9.247e-11	-1.6e-12	-8.128e-11	3.5898e-07	-3.5908e-07	6.8735e-09	-1.873e-11	-6.605e-09	3.5906e-07	-3.593e-07	1.28744e-08	-5.495e-11	-1.2153e-08	3.5886e-07	-3.595e-07	2.32794e-08	-1.2669e-10	-2.17264e-08	3.588e-07	-3.6024e-07	4.07828e-08	-2.6084e-10	-3.75834e-08	3.59e-07	-3.6198e-07	7.13718e-08	-4.7675e-10	-6.53996e-08	3.5902e-07	-3.645e-07	1.2402e-07	-7.9819e-10	-1.135596e-07	3.5922e-07	-3.689e-07
-0.12	1.012e-10	-4.11e-12	-1.0483e-10	3.59e-07	-3.589e-07	7.8078e-09	-2.06e-11	-7.5337e-09	3.5916e-07	-3.5936e-07	1.45678e-08	-5.462e-11	-1.38646e-08	3.5892e-07	-3.5952e-07	2.62788e-08	-1.2109e-10	-2.47006e-08	3.5892e-07	-3.6034e-07	4.58712e-08	-2.5549e-10	-4.2606e-08	3.5892e-07	-3.6192e-07	7.99526e-08	-4.6674e-10	-7.3963e-08	3.5898e-07	-3.6448e-07	1.381e-07	-7.8223e-10	-1.2794e-07	3.592e-07	-3.6888e-07
-0.115	1.2085e-10	-5.34e-12	-1.2041e-10	3.5906e-07	-3.5904e-07	8.8619e-09	-1.781e-11	-8.614e-09	3.5916e-07	-3.5932e-07	1.65478e-08	-4.982e-11	-1.58488e-08	3.5882e-07	-3.5956e-07	2.973e-08	-1.2101e-10	-2.81546e-08	3.5892e-07	-3.6042e-07	5.15854e-08	-2.5055e-10	-4.8403e-08	3.5906e-07	-3.6188e-07	8.98128e-08	-4.5648e-10	-8.3815e-08	3.5904e-07	-3.6448e-07	1.5486e-07	-7.7046e-10	-1.4418e-07	3.592e-07	-3.6896e-07
-0.11	1.3196e-10	-5.97e-12	-1.3403e-10	3.5906e-07	-3.5888e-07	1.01057e-08	-1.592e-11	-9.8317e-09	3.592e-07	-3.5932e-07	1.87962e-08	-4.873e-11	-1.8046e-08	3.5896e-07	-3.5958e-07	3.35788e-08	-1.1587e-10	-3.1995e-08	3.5898e-07	-3.6032e-07	5.80998e-08	-2.4437e-10	-5.49002e-08	3.5902e-07	-3.6194e-07	1.005098e-07	-4.4955e-10	-9.47934e-08	3.5904e-07	-3.6446e-07	1.7252e-07	-7.5721e-10	-1.6264e-07	3.5922e-07	-3.689e-07
-0.105	1.5495e-10	-2.87e-12	-1.6353e-10	3.5924e-07	-3.5926e-07	1.15592e-08	-1.772e-11	-1.12644e-08	3.5914e-07	-3.5944e-07	2.1314e-08	-4.763e-11	-2.06158e-08	3.5896e-07	-3.596e-07	3.80314e-08	-1.0892e-10	-3.64372e-08	3.5874e-07	-3.6022e-07	6.57082e-08	-2.3647e-10	-6.23546e-08	3.5898e-07	-3.6174e-07	1.134224e-07	-4.3925e-10	-1.074758e-07	3.5894e-07	-3.6448e-07	1.9418e-07	-7.4074e-10	-1.838e-07	3.592e-07	-3.6894e-07
-0.1	1.756e-10	-2.41e-12	-1.8407e-10	3.5926e-07	-3.5918e-07	1.31266e-08	-1.505e-11	-1.28664e-08	3.591e-07	-3.5938e-07	2.42218e-08	-4.477e-11	-2.34818e-08	3.589e-07	-3.595e-07	4.31288e-08	-1.0799e-10	-4.146e-08	3.5886e-07	-3.6026e-07	7.38312e-08	-2.3241e-10	-7.08718e-08	3.5894e-07	-3.6188e-07	1.277e-07	-4.3003e-10	-1.2158e-07	3.5906e-07	-3.646e-07	2.1738e-07	-7.295e-10	-2.0758e-07	3.5916e-07	-3.689e-07
-0.095	2.0956e-10	4.1e-13	-2.1185e-10	3.5928e-07	-3.5924e-07	1.49926e-08	-1.359e-11	-1.47364e-08	3.5914e-07	-3.5926e-07	2.75392e-08	-4.274e-11	-2.6844e-08	3.5878e-07	-3.5932e-07	4.8871e-08	-1.0609e-10	-4.7286e-08	3.588e-07	-3.6028e-07	8.35974e-08	-2.2716e-10	-8.04998e-08	3.5894e-07	-3.6182e-07	1.4378e-07	-4.2095e-10	-1.378e-07	3.5904e-07	-3.6444e-07	2.439e-07	-7.1694e-10	-2.3386e-07	3.5914e-07	-3.6888e-07
-0.09	2.4361e-10	-1.55e-12	-2.5024e-10	3.5932e-07	-3.5924e-07	1.70934e-08	-1.363e-11	-1.68266e-08	3.5914e-07	-3.5938e-07	3.1364e-08	-4.304e-11	-3.06544e-08	3.5898e-07	-3.5952e-07	5.53744e-08	-9.905e-11	-5.41004e-08	3.5896e-07	-3.6028e-07	9.48096e-08	-2.1995e-10	-9.1481e-08	3.5896e-07	-3.6178e-07	1.6248e-07	-4.117e-10	-1.5654e-07	3.5902e-07	-3.6452e-07	2.7438e-07	-7.0239e-10	-2.6388e-07	3.591e-07	-3.6884e-07
-0.085	2.9349e-10	-3.69e-12	-3.0636e-10	3.5932e-07	-3.5924e-07	1.94686e-08	-1.401e-11	-1.92182e-08	3.5904e-07	-3.592e-07	3.56898e-08	-3.852e-11	-3.49828e-08	3.5892e-07	-3.5954e-07	6.28992e-08	-9.827e-11	-6.14634e-08	3.5916e-07	-3.605e-07	1.071298e-07	-2.1518e-10	-1.040564e-07	3.592e-07	-3.6206e-07	1.8244e-07	-4.012e-10	-1.773e-07	3.5904e-07	-3.6452e-07	3.0802e-07	-6.9377e-10	-2.9788e-07	3.5918e-07	-3.6888e-07
-0.08	3.0299e-10	-4.61e-12	-3.4852e-10	3.5922e-07	-3.5924e-07	2.22818e-08	-1.18e-11	-2.20156e-08	3.591e-07	-3.593e-07	4.05804e-08	-3.827e-11	-3.9976e-08	3.5916e-07	-3.5954e-07	7.16942e-08	-9.774e-11	-6.99938e-08	3.5912e-07	-3.6052e-07	1.2126e-07	-2.0983e-10	-1.1798e-07	3.592e-07	-3.6204e-07	2.066e-07	-3.9512e-10	-2.0094e-07	3.5904e-07	-3.6446e-07	3.4692e-07	-6.7881e-10	-3.3644e-07	3.5914e-07	-3.689e-07
-0.075	3.6691e-10	-4.89e-12	-4.0484e-10	3.5926e-07	-3.5926e-07	2.54376e-08	-1.147e-11	-2.514e-08	3.5914e-07	-3.5932e-07	4.6234e-08	-3.765e-11	-4.56062e-08	3.591e-07	-3.5974e-07	8.12914e-08	-9.288e-11	-7.97548e-08	3.591e-07	-3.606e-07	1.3738e-07	-2.0399e-10	-1.3478e-07	3.5922e-07	-3.62e-07	2.3316e-07	-3.8849e-10	-2.272e-07	3.5908e-07	-3.6452e-07	3.8982e-07	-6.6484e-10	-3.8e-07	3.592e-07	-3.6866e-07
-0.07	4.2204e-10	-2.8e-12	-4.0772e-10	3.5938e-07	-3.5928e-07	2.89832e-08	-1.127e-11	-2.87922e-08	3.592e-07	-3.5936e-07	5.27672e-08	-3.511e-11	-5.20808e-08	3.5904e-07	-3.5962e-07	9.25542e-08	-9.179e-11	-9.08824e-08	3.591e-07	-3.6046e-07	1.5608e-07	-1.9769e-10	-1.5286e-07	3.5916e-07	-3.62e-07	2.6402e-07	-3.7842e-10	-2.5824e-07	3.5896e-07	-3.6456e-07	4.4026e-07	-6.5288e-10	-4.2968e-07	3.591e-07	-3.6874e-07
-0.065	4.6544e-10	-2.54e-12	-5.0747e-10	3.5932e-07	-3.5908e-07	3.31644e-08	-9.4e-12	-3.29652e-08	3.5904e-07	-3.5926e-07	6.00492e-08	-3.406e-11	-5.93486e-08	3.5906e-07	-3.5962e-07	1.050424e-07	-8.752e-11	-1.03529e-07	3.5902e-07	-3.6046e-07	1.7674e-07	-1.9431e-10	-1.7404e-07	3.5918e-07	-3.621e-07	2.9842e-07	-3.6988e-10	-2.9196e-07	3.591e-07	-3.646e-07	4.9542e-07	-6.4113e-10	-4.8522e-07	3.5902e-07	-3.6856e-07
